(1761708975.456554) vcan0  02C   [8]  73 BD DB 1D BC 7B 78 2D
(1761708975.457660) vcan0  587   [8]  2B 6E C4 40 C6 16 91 6C
(1761708975.458809) vcan0  775   [4]  9D 32 43 09
(1761708975.460256) vcan0  711   [1]  8C
(1761708975.461269) vcan0  6F0   [8]  E1 AE A1 57 DE 62 54 36
(1761708975.462264) vcan0  58F   [8]  36 C5 98 0B 0C C2 C1 6D
(1761708975.463279) vcan0  587   [8]  2C 59 F4 46 FD E6 D4 66
(1761708975.464219) vcan0  280   [3]  8C EB B8
(1761708975.465084) vcan0  76B   [8]  68 66 86 15 F2 8C 06 58
(1761708975.466447) vcan0  3ED   [3]  B9 A3 97
(1761708975.466553) vcan0  797   [6]  E0 CB C0 2A A8 4E
(1761708975.467909) vcan0  428   [8]  EA 8F 83 23 18 93 9E 5C
(1761708975.468817) vcan0  057   [8]  F7 F5 F2 12 E7 35 42 04
(1761708975.469641) vcan0  526   [8]  F3 F7 03 72 AD C2 37 0C
(1761708975.471069) vcan0  497   [8]  AA A9 0C 73 17 6F 20 46
(1761708975.471480) vcan0  642   [7]  C3 59 2E 2E AE C5 98
(1761708975.472035) vcan0  636   [8]  A0 52 9F 68 23 3A AC 05
(1761708975.472217) vcan0  4BE   [8]  86 75 9A 7F 55 94 8F 7E
(1761708975.472781) vcan0  4B0   [6]  FE E2 F2 68 D8 18
(1761708975.472835) vcan0  6D3   [8]  F0 AB 31 11 2B A7 91 10
(1761708975.473358) vcan0  1B3   [7]  12 DD D3 14 D9 B6 46
(1761708975.473416) vcan0  514   [5]  86 79 7E 0F AC
(1761708975.474715) vcan0  624   [1]  C3
(1761708975.475344) vcan0  068   [7]  15 6A 64 58 9E F6 AA
(1761708975.475534) vcan0  2B2   [5]  C2 30 57 42 71
(1761708975.476109) vcan0  30F   [8]  C6 C3 89 20 BF 7F 4C 69
(1761708975.477418) vcan0  7AE   [4]  97 98 DF 1D
(1761708975.478199) vcan0  1AC   [7]  AD A5 62 4B 60 CB 8E
(1761708975.478924) vcan0  66F   [8]  39 82 D5 20 83 43 E6 15
(1761708975.480215) vcan0  7C4   [0]
(1761708975.480718) vcan0  6F1   [3]  4F 22 AA
(1761708975.480975) vcan0  07A   [4]  F7 CD DA 21
(1761708975.481233) vcan0  11A   [8]  9D 7A 2F 6A 29 FC 4C 76
(1761708975.482264) vcan0  501   [4]  E8 7B 99 5F
(1761708975.482670) vcan0  528   [8]  32 8B 41 4D D5 FE 28 2A
(1761708975.483069) vcan0  106   [8]  35 CA B7 47 75 3F C0 7F
(1761708975.484166) vcan0  39E   [8]  F9 82 A6 15 62 0B E9 5F
(1761708975.485549) vcan0  02E   [8]  4A 89 C7 06 1F 67 C0 4B
(1761708975.486638) vcan0  61B   [8]  78 3E F0 30 95 5E B3 37
(1761708975.487173) vcan0  7FE   [0]
(1761708975.487925) vcan0  329   [8]  41 7D DF 3A 2B B0 20 5D
(1761708975.489299) vcan0  2C3   [8]  DB 3C 91 6F EC 47 07 09
(1761708975.489371) vcan0  5A8   [8]  C1 46 30 33 AF 66 7C 44
(1761708975.490440) vcan0  0EC   [6]  24 A6 3C 44 8A AC
(1761708975.490924) vcan0  564   [8]  EC B7 3A 2E 93 A5 56 7C
(1761708975.491552) vcan0  146   [6]  B2 0C 17 48 61 AF
(1761708975.491720) vcan0  4D0   [8]  F7 0D 93 04 CF 24 F4 66
(1761708975.492665) vcan0  79B   [8]  E7 A5 86 2B C4 62 CF 02
(1761708975.493164) vcan0  418   [8]  EF 12 F0 5F DC 3E 65 63
(1761708975.493172) vcan0  452   [8]  C8 86 6C 6C FB 29 D1 18
(1761708975.493562) vcan0  7D7   [8]  AA 90 4D 5D C3 10 CB 61
(1761708975.493687) vcan0  67F   [8]  4D BD 1C 30 E3 3B FA 7D
(1761708975.494992) vcan0  7EC   [8]  76 E1 50 7A 32 61 D4 50
(1761708975.495460) vcan0  670   [8]  93 10 B4 1D 40 A3 CD 3D
(1761708975.495674) vcan0  154   [8]  0F C8 C1 24 EF 90 41 07
(1761708975.496479) vcan0  643   [7]  B3 F3 10 0A 5C B2 56
(1761708975.496562) vcan0  120   [3]  38 F1 BB
(1761708975.496565) vcan0  66D   [0]
(1761708975.496685) vcan0  589   [7]  08 7F A1 27 08 24 4A
(1761708975.497350) vcan0  6E6   [6]  EB 5F 44 1D D2 FE
(1761708975.498813) vcan0  18F   [2]  04 60
(1761708975.498880) vcan0  78B   [7]  40 0B 3D 07 DF 68 6C
(1761708975.499332) vcan0  722   [8]  CE F9 AD 1C 65 65 36 02
(1761708975.500130) vcan0  146   [1]  C1
(1761708975.500306) vcan0  424   [8]  D9 7F 83 6A 92 4A 42 4A
(1761708975.501209) vcan0  0F9   [6]  D7 B8 18 10 82 C6
(1761708975.502481) vcan0  75E   [8]  8A EA 80 19 44 5E C5 37
(1761708975.503231) vcan0  435   [6]  16 5D 69 02 C5 25
(1761708975.503443) vcan0  3D8   [8]  C4 8D FD 0E 63 BB 57 28
(1761708975.504320) vcan0  5B1   [4]  42 24 C4 3D
(1761708975.504798) vcan0  454   [0]
(1761708975.505843) vcan0  391   [8]  01 80 76 71 B6 FF F0 11
(1761708975.505930) vcan0  2F4   [8]  48 4A 33 5C ED C3 FF 51
(1761708975.505973) vcan0  720   [8]  70 8A 36 4C 7E 16 6B 7F
(1761708975.506139) vcan0  2FE   [8]  C2 74 30 37 34 AF 7E 33
(1761708975.507345) vcan0  770   [8]  F9 D4 0C 79 48 4B D7 6A
(1761708975.507446) vcan0  6F2   [8]  AB 06 2F 13 A4 BC 89 2E
(1761708975.507774) vcan0  3C2   [8]  77 79 0B 61 16 68 7E 60
(1761708975.508348) vcan0  0FD   [0]
(1761708975.508677) vcan0  5AB   [1]  45
(1761708975.509101) vcan0  58B   [8]  8C DC 96 10 AC EC 4B 03
(1761708975.509406) vcan0  1AC   [8]  2A 03 B7 02 AA DC 0C 2B
(1761708975.510417) vcan0  3F7   [8]  DE 8B 8B 5E 67 9B 01 5F
(1761708975.511058) vcan0  1C5   [7]  B0 E6 D8 49 B8 D8 FC
(1761708975.512124) vcan0  395   [8]  5C 95 86 79 57 BF E7 7D
(1761708975.512775) vcan0  049   [3]  6D 27 66
(1761708975.513846) vcan0  284   [8]  D5 B5 F6 05 2F 80 5E 52
(1761708975.514742) vcan0  2CF   [8]  CE 98 F5 10 5A 68 4A 7A
(1761708975.515279) vcan0  0A7   [8]  06 55 96 7D 53 4A 3F 66
(1761708975.515692) vcan0  457   [1]  FE
(1761708975.515948) vcan0  01E   [8]  B5 53 E0 1F E3 19 B6 2D
(1761708975.517283) vcan0  3B4   [5]  9B F2 B2 78 49
(1761708975.517760) vcan0  7C1   [7]  A0 96 FA 24 0A 40 BC
(1761708975.517771) vcan0  6CB   [8]  50 A1 1C 4E 4F 41 21 3D
(1761708975.519228) vcan0  32A   [6]  7E C1 7F 0F F9 CD
(1761708975.520217) vcan0  140   [8]  54 36 EB 08 E8 09 CA 77
(1761708975.521613) vcan0  7A6   [8]  3B 54 09 5E FD AB 5B 40
(1761708975.521738) vcan0  38B   [8]  4B 64 3A 01 A9 B3 03 41
(1761708975.522407) vcan0  616   [1]  8D
(1761708975.523377) vcan0  266   [8]  13 19 B0 4D 27 1A 95 51
(1761708975.523553) vcan0  020   [3]  31 5A 51
(1761708975.523981) vcan0  5C0   [2]  3A 20
(1761708975.524003) vcan0  2A8   [8]  E4 36 72 05 E8 B3 12 01
(1761708975.525472) vcan0  404   [8]  D0 BD DC 78 AA 0B 8A 55
(1761708975.525869) vcan0  092   [8]  A8 B7 E5 15 1E DC AD 1B
(1761708975.526362) vcan0  545   [3]  C7 8F B1
(1761708975.526814) vcan0  3F4   [4]  25 FD 05 4C
(1761708975.527342) vcan0  57D   [8]  82 E0 A3 14 9D 65 7E 0C
(1761708975.527790) vcan0  5EB   [4]  88 44 F0 32
(1761708975.528636) vcan0  636   [2]  96 9C
(1761708975.529338) vcan0  67A   [8]  C6 3C F7 58 7E 82 1E 1D
(1761708975.529969) vcan0  0B2   [7]  28 8E A8 72 44 39 EC
(1761708975.530843) vcan0  4A3   [0]
(1761708975.531477) vcan0  1C4   [8]  44 55 5E 14 B8 35 E9 57
(1761708975.532674) vcan0  27E   [8]  13 FC F7 1A FB 1F 8F 18
(1761708975.533692) vcan0  0A2   [6]  98 85 0D 25 8D 2E
(1761708975.534774) vcan0  74A   [0]
(1761708975.535421) vcan0  6E2   [8]  5E D6 D8 51 5C 75 17 78
(1761708975.536059) vcan0  249   [4]  DA F7 35 15
(1761708975.536687) vcan0  5BB   [3]  3F 4C CE
(1761708975.537821) vcan0  3D3   [2]  47 B4
(1761708975.538046) vcan0  6CC   [8]  50 63 04 08 4A 09 6B 6D
(1761708975.539450) vcan0  3F4   [3]  46 29 FA
(1761708975.540337) vcan0  3F9   [8]  24 F3 AB 09 43 53 29 5D
(1761708975.541710) vcan0  0FF   [8]  C3 A0 1D 57 E1 A7 86 71
(1761708975.541839) vcan0  42C   [1]  3E
(1761708975.542369) vcan0  246   [8]  70 39 6F 23 01 98 6A 50
(1761708975.542944) vcan0  31B   [8]  60 B2 C8 75 EF 66 1F 17
(1761708975.543776) vcan0  751   [7]  86 94 3A 47 1D EE 59
(1761708975.545136) vcan0  032   [6]  68 F7 C4 35 26 CC
(1761708975.545922) vcan0  73A   [8]  BD 90 15 3F 33 93 D3 44
(1761708975.546896) vcan0  78C   [1]  77
(1761708975.547696) vcan0  13E   [8]  6D F0 52 5B 6A 2D 0D 70
(1761708975.548809) vcan0  65C   [8]  DF 53 9A 05 A2 88 D7 75
(1761708975.549498) vcan0  2C3   [8]  A3 20 42 46 DF BD 77 4A
(1761708975.549830) vcan0  2FE   [3]  CE 24 97
(1761708975.550028) vcan0  1AA   [4]  6D E8 46 05
(1761708975.551050) vcan0  12B   [5]  03 76 DA 34 65
(1761708975.552187) vcan0  083   [0]
(1761708975.553210) vcan0  2A1   [8]  9B 18 5E 47 DF 63 06 18
(1761708975.554098) vcan0  14A   [8]  49 91 13 08 A6 07 48 6C
(1761708975.554751) vcan0  6B3   [8]  48 90 1F 62 77 39 67 2B
(1761708975.555558) vcan0  277   [8]  56 F7 DE 75 75 85 FE 32
(1761708975.555891) vcan0  3EF   [4]  C5 7F EB 6F
(1761708975.557262) vcan0  578   [3]  76 67 89
(1761708975.558250) vcan0  008   [8]  08 8F A4 62 8C 48 09 27
(1761708975.558740) vcan0  439   [1]  9C
(1761708975.558885) vcan0  4B0   [7]  B9 D2 0B 21 FA B5 17
(1761708975.560306) vcan0  240   [2]  A0 BD
(1761708975.561342) vcan0  12A   [8]  6A 8A B3 01 A1 BB 84 6D
(1761708975.562051) vcan0  6D4   [0]
(1761708975.562531) vcan0  5E4   [8]  5C 40 E1 32 5D 73 50 4F
(1761708975.563520) vcan0  10F   [2]  00 FA
(1761708975.564403) vcan0  54B   [8]  A3 B9 E8 5C 84 69 22 7B
(1761708975.564881) vcan0  3AA   [8]  5E D8 27 04 5A 60 F2 1E
(1761708975.566276) vcan0  377   [7]  55 16 0A 4C B7 3D 27
(1761708975.567014) vcan0  719   [5]  AA 8E 73 72 43
(1761708975.567803) vcan0  1DE   [5]  E4 13 A5 72 B2
(1761708975.568335) vcan0  2D5   [8]  75 A3 17 0D BA 38 C2 3A
(1761708975.569563) vcan0  5D7   [1]  17
(1761708975.570993) vcan0  3A4   [7]  FD AF 17 5F EF 10 32
(1761708975.572052) vcan0  720   [1]  74
(1761708975.573279) vcan0  3E0   [2]  25 43
(1761708975.573914) vcan0  5EA   [8]  0E 7D 28 67 03 0D 03 38
(1761708975.574804) vcan0  56F   [8]  47 65 23 3D 4D 4F 6A 69
(1761708975.575993) vcan0  4CE   [8]  FF 6F 34 6E A3 BF 7C 39
(1761708975.576565) vcan0  626   [4]  5D F8 3E 74
(1761708975.576792) vcan0  746   [4]  E3 22 C0 0F
(1761708975.578164) vcan0  28C   [1]  D9
(1761708975.579454) vcan0  482   [8]  77 5C 31 04 62 78 5C 48
(1761708975.580165) vcan0  120   [8]  BA B7 5D 13 0A 5F 5B 05
(1761708975.580559) vcan0  116   [8]  0D 6C 5E 3D 85 26 D7 06
(1761708975.580696) vcan0  081   [4]  D3 75 41 70
(1761708975.581711) vcan0  280   [2]  F3 24
(1761708975.582839) vcan0  147   [0]
(1761708975.584047) vcan0  1C5   [7]  77 73 AF 66 51 0C 00
(1761708975.584258) vcan0  268   [0]
(1761708975.585450) vcan0  59E   [4]  4D A7 8F 45
(1761708975.585897) vcan0  210   [7]  C8 D5 BF 75 26 7B DC
(1761708975.586258) vcan0  3CF   [5]  AC A1 B3 4E 51
(1761708975.586264) vcan0  32A   [8]  A0 39 7B 49 AA 5D EA 57
(1761708975.586618) vcan0  551   [3]  50 76 25
(1761708975.587503) vcan0  3E4   [4]  25 E7 33 0C
(1761708975.588146) vcan0  27C   [8]  FA 49 71 60 E4 84 C6 4E
(1761708975.589021) vcan0  1ED   [7]  CF B3 F9 4B 8B 77 26
(1761708975.590095) vcan0  26C   [8]  49 EE 8A 35 7C 34 56 02
(1761708975.590281) vcan0  223   [1]  A3
(1761708975.591732) vcan0  5E6   [8]  43 22 80 65 10 19 09 0C
(1761708975.592375) vcan0  0CE   [4]  BA 76 F3 63
(1761708975.593204) vcan0  277   [8]  B8 5C 73 6C 5B 36 57 48
(1761708975.593564) vcan0  67A   [8]  60 77 33 0D 67 00 F8 5B
(1761708975.594624) vcan0  5F6   [8]  F2 77 1E 21 62 40 91 6E
(1761708975.594831) vcan0  64B   [8]  DE 74 E7 70 6E 40 2D 55
(1761708975.595272) vcan0  24C   [1]  60
(1761708975.595812) vcan0  5D0   [4]  43 49 66 6C
(1761708975.596321) vcan0  488   [8]  BE 44 22 21 FF C6 6B 7B
(1761708975.596613) vcan0  508   [6]  5B FD C2 43 08 0D
(1761708975.597022) vcan0  553   [8]  83 FF E0 79 CD 83 C7 71
(1761708975.598416) vcan0  75E   [3]  34 84 BF
(1761708975.599673) vcan0  212   [6]  B6 FD 17 5E 5D 28
(1761708975.599825) vcan0  261   [4]  CB 68 25 20
(1761708975.601138) vcan0  716   [8]  E0 BC D8 27 E6 0C 1A 5E
(1761708975.602183) vcan0  7D0   [3]  85 EB F5
(1761708975.602246) vcan0  620   [3]  57 7B D3
(1761708975.603599) vcan0  1B9   [2]  31 80
(1761708975.603999) vcan0  212   [4]  DA 3A B2 30
(1761708975.604095) vcan0  698   [8]  C4 D6 6D 0A AA 98 B6 7A
(1761708975.605195) vcan0  335   [8]  08 C1 AE 45 96 1D D7 32
(1761708975.606096) vcan0  70E   [3]  44 AA 52
(1761708975.606736) vcan0  0FF   [4]  0B EB B8 1F
(1761708975.607429) vcan0  547   [0]
(1761708975.607917) vcan0  6D3   [8]  90 A6 0E 79 8C D8 74 0D
(1761708975.608061) vcan0  131   [1]  98
(1761708975.608842) vcan0  676   [2]  B3 74
(1761708975.609467) vcan0  181   [7]  B8 35 1A 3B B6 44 D3
(1761708975.610762) vcan0  7F1   [0]
(1761708975.612177) vcan0  094   [0]
(1761708975.612287) vcan0  3B4   [8]  63 0A 94 44 FB E0 92 6E
(1761708975.612396) vcan0  6BF   [8]  63 14 96 09 92 0D 07 00
(1761708975.613053) vcan0  009   [3]  1E E6 7B
(1761708975.613885) vcan0  1B5   [7]  7E 4C 93 18 2B 88 21
(1761708975.614702) vcan0  029   [2]  39 25
(1761708975.615554) vcan0  4A9   [1]  60
(1761708975.616867) vcan0  1B2   [8]  9B 93 6F 17 46 72 05 1E
(1761708975.617193) vcan0  53D   [8]  D9 B3 B3 1D F2 F0 13 25
(1761708975.618027) vcan0  0EF   [8]  ED D1 A6 13 AE 0F 19 26
(1761708975.619261) vcan0  5C7   [0]
(1761708975.620422) vcan0  144   [8]  0B B7 E5 40 F9 82 14 35
(1761708975.621691) vcan0  116   [8]  24 0B 36 70 40 B9 64 64
(1761708975.621789) vcan0  4BC   [8]  EA 82 D5 36 65 D1 4E 76
(1761708975.621866) vcan0  34E   [8]  00 FE 84 6D 00 DD C2 59
(1761708975.623229) vcan0  1F8   [8]  46 4F C8 77 35 7F F3 35
(1761708975.624264) vcan0  25B   [0]
(1761708975.624788) vcan0  15C   [5]  F8 82 2E 1F 23
(1761708975.625138) vcan0  065   [8]  F4 CC 18 3A A9 C9 CC 2B
(1761708975.625291) vcan0  399   [8]  A2 4C E1 60 AF 1C 62 06
(1761708975.626273) vcan0  789   [6]  EF D5 C6 6A 45 4C
(1761708975.627589) vcan0  023   [8]  AB 1D 93 32 72 13 2D 5F
(1761708975.628797) vcan0  225   [8]  72 F0 EF 38 1D EC BD 5C
(1761708975.629028) vcan0  547   [8]  52 6B B1 12 A2 17 49 23
(1761708975.629945) vcan0  2D9   [8]  EC 8A 5E 1C 35 04 F8 3D
(1761708975.631015) vcan0  58F   [4]  59 0B E5 74
(1761708975.631077) vcan0  61E   [8]  9E 0F 1F 14 B7 51 C6 79
(1761708975.631130) vcan0  44C   [0]
(1761708975.631135) vcan0  407   [6]  1B 30 B8 3A 2A 3C
(1761708975.631833) vcan0  530   [6]  9C 4F 17 62 55 87
(1761708975.632438) vcan0  172   [8]  72 73 FF 7C B9 16 70 32
(1761708975.633304) vcan0  7C8   [4]  5B 2E B9 55
(1761708975.634534) vcan0  23E   [7]  D6 C6 EB 4F CD D7 D0
(1761708975.635056) vcan0  72B   [8]  C2 1D 23 42 49 75 80 2E
(1761708975.635095) vcan0  27C   [0]
(1761708975.636086) vcan0  1A0   [7]  9F EA 3E 1C A7 3D 5A
(1761708975.636631) vcan0  1BD   [8]  D2 79 44 14 ED 16 EA 1F
(1761708975.637435) vcan0  081   [8]  42 9E 2B 40 F3 D1 A5 51
(1761708975.638834) vcan0  17D   [4]  AC E8 15 04
(1761708975.640040) vcan0  078   [7]  E6 4B 16 6F B7 AA 45
(1761708975.641005) vcan0  04E   [8]  84 82 16 24 79 97 8B 79
(1761708975.641668) vcan0  4EC   [6]  C3 0C 0C 28 69 8F
(1761708975.642921) vcan0  5A6   [3]  32 96 6C
(1761708975.643039) vcan0  12A   [1]  EE
(1761708975.644003) vcan0  38B   [0]
(1761708975.644603) vcan0  02F   [6]  FF D5 8A 1E AC E1
(1761708975.644896) vcan0  1CA   [8]  F2 6A 3E 12 43 3A 3D 76
(1761708975.645992) vcan0  5B2   [8]  FA E4 82 40 00 A6 56 48
(1761708975.646105) vcan0  195   [8]  7A 3D E2 41 82 AE 29 44
(1761708975.646951) vcan0  7C5   [8]  EB 3D CB 3B 6B D5 4E 07
(1761708975.647825) vcan0  600   [8]  B2 2C 0D 0F 2B 27 03 33
(1761708975.649168) vcan0  4EE   [1]  12
(1761708975.649620) vcan0  061   [7]  86 F4 6A 58 90 A8 3B
(1761708975.650022) vcan0  3FD   [5]  3D 8A 57 2E C8
(1761708975.650332) vcan0  131   [8]  0B 00 03 77 E3 5E 06 16
(1761708975.651527) vcan0  407   [5]  E4 04 5D 5E 9D
(1761708975.651575) vcan0  483   [8]  1F 24 6B 46 48 54 F2 66
(1761708975.651930) vcan0  49B   [8]  B4 29 41 6E 9B AA 6E 44
(1761708975.652971) vcan0  7C0   [4]  F9 90 32 74
(1761708975.653776) vcan0  695   [2]  0A 32
(1761708975.653933) vcan0  6C6   [8]  EC 07 83 37 86 AE D8 7D
(1761708975.655283) vcan0  55A   [5]  EF 80 6A 56 EF
(1761708975.655616) vcan0  122   [8]  34 0E E6 1A 55 C1 5B 5B
(1761708975.657072) vcan0  61B   [8]  95 BF 60 48 2D 83 B1 69
(1761708975.658260) vcan0  3D8   [5]  D6 D1 3F 18 FA
(1761708975.658796) vcan0  71C   [8]  BD C2 14 35 37 75 AD 70
(1761708975.660237) vcan0  18F   [4]  CC 44 58 7F
(1761708975.661707) vcan0  214   [4]  EB 11 67 67
(1761708975.662486) vcan0  069   [8]  32 8E 40 38 F8 29 BF 70
(1761708975.663060) vcan0  6B6   [0]
(1761708975.663239) vcan0  6D3   [8]  21 E9 B9 1D 0A 57 09 00
(1761708975.664284) vcan0  49D   [5]  CA 7C 8E 02 53
(1761708975.665588) vcan0  4C2   [4]  E2 32 B9 73
(1761708975.666355) vcan0  7AB   [2]  39 3F
(1761708975.666855) vcan0  57B   [8]  DB 9B 94 1D FE 6F CA 0D
(1761708975.667278) vcan0  04E   [1]  58
(1761708975.667703) vcan0  72F   [3]  D9 B7 A1
(1761708975.668541) vcan0  2FB   [0]
(1761708975.669359) vcan0  5E9   [3]  0F 9B 6C
(1761708975.669376) vcan0  5DE   [2]  EE F4
(1761708975.670678) vcan0  3C0   [6]  01 55 E5 7E A1 B8
(1761708975.671235) vcan0  57B   [4]  B4 75 D8 40
(1761708975.671246) vcan0  44E   [4]  F2 3A C0 6F
(1761708975.672417) vcan0  0CB   [2]  22 43
(1761708975.673751) vcan0  1F1   [8]  93 D7 26 02 6E 1C 68 45
(1761708975.674540) vcan0  08F   [5]  E7 79 F7 36 C5
(1761708975.675645) vcan0  4BA   [8]  31 B3 48 7C 7F D2 F8 14
(1761708975.676334) vcan0  424   [1]  AC
(1761708975.677382) vcan0  21F   [5]  7B 4C 5C 2C D9
(1761708975.677585) vcan0  314   [0]
(1761708975.677866) vcan0  2E5   [8]  4F 55 B8 6E 04 C5 D2 00
(1761708975.679060) vcan0  7A3   [1]  13
(1761708975.679626) vcan0  68E   [8]  39 0F C4 62 EB 0A 4C 17
(1761708975.679967) vcan0  6C0   [8]  FF F2 61 06 E3 CD 3F 5D
(1761708975.680529) vcan0  336   [8]  6D 76 9E 3E 98 71 D7 7D
(1761708975.680530) vcan0  3F6   [3]  88 8F 1D
(1761708975.681264) vcan0  384   [8]  AC FE 64 44 BB 76 52 38
(1761708975.681646) vcan0  432   [8]  C4 18 6D 61 28 38 63 67
(1761708975.682541) vcan0  5E4   [8]  16 1E 91 5B 68 19 01 49
(1761708975.684004) vcan0  71C   [4]  CC 8E B6 06
(1761708975.685223) vcan0  6E5   [8]  4F 49 B2 71 24 A3 A9 1E
(1761708975.686574) vcan0  11E   [3]  3E A8 90
(1761708975.687807) vcan0  4BD   [8]  CF EB 78 06 9B 4C 7B 1D
(1761708975.688762) vcan0  350   [8]  36 EE 74 00 6E 24 F8 58
(1761708975.689720) vcan0  2F4   [0]
(1761708975.690768) vcan0  0B1   [8]  35 81 15 5B DF 90 E2 67
(1761708975.690786) vcan0  300   [7]  13 E5 7A 1E F4 E5 76
(1761708975.692058) vcan0  3CC   [4]  A8 70 25 65
(1761708975.692730) vcan0  343   [5]  59 87 DF 57 C6
(1761708975.692883) vcan0  3FF   [8]  36 00 60 12 A3 7D 17 5A
(1761708975.693393) vcan0  2CE   [2]  25 AD
(1761708975.694075) vcan0  0F1   [8]  E6 F5 50 2E 92 74 C0 2B
(1761708975.694359) vcan0  4F6   [2]  D1 A9
(1761708975.694708) vcan0  09D   [5]  18 92 50 6D B1
(1761708975.695473) vcan0  3AA   [8]  FF 96 80 0E 43 86 1E 4B
(1761708975.696012) vcan0  3CB   [4]  5C 64 3F 3C
(1761708975.696306) vcan0  521   [8]  BD BA 95 7A 60 7D 34 77
(1761708975.696860) vcan0  0B7   [8]  A9 F8 8E 61 82 2C 46 53
(1761708975.698303) vcan0  0D3   [8]  DA BF 89 20 F4 C5 82 49
(1761708975.699057) vcan0  11C   [8]  86 E9 22 59 8D 15 26 14
(1761708975.699269) vcan0  74D   [4]  8C 6D C5 21
(1761708975.700669) vcan0  04C   [1]  73
(1761708975.701661) vcan0  2DD   [8]  00 96 D9 36 2B FA 40 38
(1761708975.702357) vcan0  17E   [5]  33 1D BC 20 CA
(1761708975.702551) vcan0  2BC   [0]
(1761708975.703619) vcan0  09A   [2]  63 00
(1761708975.704019) vcan0  643   [1]  DA
(1761708975.705061) vcan0  2FE   [8]  59 04 14 0F 98 C3 2D 30
(1761708975.706022) vcan0  025   [8]  29 3B 5E 7A 68 26 D6 3A
(1761708975.706075) vcan0  2E4   [8]  35 57 59 31 C9 51 05 2C
(1761708975.706676) vcan0  603   [8]  6F 26 C1 7A 28 46 13 6B
(1761708975.707550) vcan0  7A1   [8]  F1 E3 BF 64 85 C2 22 23
(1761708975.707607) vcan0  7B0   [5]  41 CC AD 6D B3
(1761708975.708806) vcan0  640   [7]  92 DF 55 30 E1 75 E6
(1761708975.709530) vcan0  3BE   [7]  85 64 29 73 DA 09 D4
(1761708975.709993) vcan0  2B6   [8]  77 C2 83 58 FE CE 73 1E
(1761708975.710575) vcan0  3F9   [2]  67 06
(1761708975.710885) vcan0  21B   [8]  65 03 5C 57 D1 A4 05 02
(1761708975.711246) vcan0  1B9   [3]  5E EB 98
(1761708975.712342) vcan0  4B0   [8]  11 CC 78 7E C3 39 3E 72
(1761708975.713242) vcan0  71D   [8]  7C 2F C6 45 48 85 EF 63
(1761708975.714226) vcan0  7B5   [0]
(1761708975.715154) vcan0  660   [1]  D0
(1761708975.716431) vcan0  3FE   [6]  C2 8D BE 57 42 79
(1761708975.717313) vcan0  4D4   [8]  49 47 EE 30 34 FB 82 4D
(1761708975.717667) vcan0  12C   [2]  98 F3
(1761708975.718093) vcan0  562   [8]  A9 A9 81 7B F1 EE 9E 7C
(1761708975.718342) vcan0  779   [5]  7E E8 3C 1F DF
(1761708975.718622) vcan0  1D0   [3]  B8 10 91
(1761708975.718709) vcan0  0EA   [8]  2F C4 A6 69 C8 06 1B 43
(1761708975.719858) vcan0  237   [2]  31 5E
(1761708975.720553) vcan0  16E   [8]  72 8F 02 31 58 DA 3C 12
(1761708975.721747) vcan0  71D   [8]  71 3D E4 2B 54 39 2B 47
(1761708975.721809) vcan0  45A   [8]  30 E0 35 64 D6 94 38 51
(1761708975.722758) vcan0  7EA   [7]  3B 9C A1 27 07 6F 4A
(1761708975.722999) vcan0  27E   [8]  6A 97 EE 75 D9 9E 16 71
(1761708975.724072) vcan0  4D3   [8]  48 4B 69 13 BF A4 8B 49
(1761708975.725174) vcan0  6D5   [8]  3B 69 10 65 54 51 E4 5D
(1761708975.726395) vcan0  464   [1]  77
(1761708975.726792) vcan0  309   [6]  E3 C4 DE 52 F9 92
(1761708975.726930) vcan0  749   [7]  38 D9 7C 31 B5 03 AA
(1761708975.728375) vcan0  203   [4]  BC 05 3B 51
(1761708975.729316) vcan0  63A   [8]  5C D6 6A 2C 83 DD 73 27
(1761708975.729473) vcan0  22E   [0]
(1761708975.730725) vcan0  2F0   [8]  1A 6D CC 0C 5A C0 C4 35
(1761708975.731452) vcan0  4C3   [2]  88 46
(1761708975.732113) vcan0  697   [4]  07 B3 3A 52
(1761708975.733281) vcan0  6E0   [1]  C5
(1761708975.734591) vcan0  4A2   [8]  A0 70 91 57 39 43 F5 43
(1761708975.735298) vcan0  46F   [5]  97 09 B9 2A 4F
(1761708975.736207) vcan0  446   [8]  51 FB 5D 07 7B C7 46 47
(1761708975.736890) vcan0  4A1   [5]  0C 55 87 58 10
(1761708975.738095) vcan0  4D8   [2]  26 62
(1761708975.739330) vcan0  7D2   [8]  31 1B 80 69 65 CF A7 5B
(1761708975.740111) vcan0  4BA   [7]  F3 49 20 35 92 91 91
(1761708975.741305) vcan0  731   [6]  B4 79 A0 20 03 87
(1761708975.742394) vcan0  631   [8]  79 9F A1 52 EB 62 41 77
(1761708975.743300) vcan0  585   [8]  A1 82 3E 42 15 9F 6A 62
(1761708975.744358) vcan0  2CF   [6]  74 C7 E7 64 24 6A
(1761708975.745688) vcan0  677   [1]  68
(1761708975.746053) vcan0  533   [3]  9C 92 A7
(1761708975.746267) vcan0  03D   [2]  B3 FD
(1761708975.747215) vcan0  03E   [2]  D1 91
(1761708975.748539) vcan0  7CC   [4]  B9 F9 05 65
(1761708975.748707) vcan0  2F8   [6]  E0 51 D9 17 36 FB
(1761708975.749579) vcan0  7B1   [0]
(1761708975.749822) vcan0  71E   [3]  72 50 68
(1761708975.749865) vcan0  668   [8]  84 51 8F 23 19 56 CC 23
(1761708975.751237) vcan0  52C   [0]
(1761708975.752026) vcan0  08F   [8]  73 F5 CD 46 7B B7 A7 5F
(1761708975.753485) vcan0  09C   [8]  BB 1B D1 71 C9 C5 83 76
(1761708975.754927) vcan0  363   [5]  83 5E B8 29 F3
(1761708975.755831) vcan0  350   [4]  02 A5 70 6C
(1761708975.756108) vcan0  1FA   [8]  EE 3A EB 1A 91 86 38 6B
(1761708975.756559) vcan0  600   [2]  02 1F
(1761708975.757733) vcan0  154   [8]  E0 A5 F0 10 4E B3 A5 05
(1761708975.759066) vcan0  772   [8]  8C AF 58 22 72 5D F4 16
(1761708975.760144) vcan0  4D5   [8]  14 5F 40 02 FD 9B EA 6C
(1761708975.760652) vcan0  78D   [8]  85 E8 C3 0C FF 6E 55 4C
(1761708975.761716) vcan0  062   [5]  BA D2 F3 58 37
(1761708975.762876) vcan0  458   [8]  81 A6 7E 42 A9 A9 FB 10
(1761708975.762929) vcan0  347   [8]  92 DA 53 37 A9 5B 78 33
(1761708975.763159) vcan0  1EB   [5]  00 E9 88 12 43
(1761708975.764333) vcan0  798   [5]  8E 6E B5 4A DF
(1761708975.764419) vcan0  17D   [3]  9D AC A7
(1761708975.765273) vcan0  3C1   [8]  74 40 D2 60 59 63 F0 2E
(1761708975.765664) vcan0  429   [8]  1B C4 AE 3D A6 A5 A0 37
(1761708975.766884) vcan0  452   [6]  A4 D2 C6 47 69 95
(1761708975.768304) vcan0  590   [4]  0B D6 5C 26
(1761708975.769422) vcan0  119   [3]  44 30 78
(1761708975.769994) vcan0  7C2   [3]  81 D9 D1
(1761708975.770522) vcan0  331   [8]  45 3E 46 29 FE 73 24 30
(1761708975.771817) vcan0  656   [8]  CB 02 2C 1B 14 A8 38 2A
(1761708975.772946) vcan0  2EC   [1]  EB
(1761708975.774323) vcan0  115   [5]  42 32 AF 54 6C
(1761708975.774704) vcan0  0A9   [8]  C3 EA C0 1E 9B 48 F8 38
(1761708975.775541) vcan0  726   [6]  6D F8 11 74 3B 60
(1761708975.776730) vcan0  27C   [1]  F7
(1761708975.778057) vcan0  0AC   [6]  25 CB 7C 7C 48 31
(1761708975.778320) vcan0  75A   [8]  57 B7 FC 5B 16 DF 6C 34
(1761708975.778729) vcan0  0C4   [8]  5F 15 50 2D AD 89 0F 26
(1761708975.779976) vcan0  377   [8]  A8 64 58 0B 59 D3 5A 05
(1761708975.780420) vcan0  7AF   [8]  06 25 68 15 83 9F E7 15
(1761708975.780637) vcan0  117   [8]  D3 17 50 45 0E 15 94 21
(1761708975.780935) vcan0  342   [8]  6F F7 CB 6C DF 1F E1 4C
(1761708975.782309) vcan0  799   [8]  9C AC E2 11 B1 78 71 23
(1761708975.783574) vcan0  50C   [7]  FA 6B 40 50 24 BF 85
(1761708975.783834) vcan0  43E   [4]  58 38 B9 16
(1761708975.785141) vcan0  462   [8]  9C B5 5B 74 DE A2 11 77
(1761708975.786348) vcan0  4F5   [6]  7E FF 7E 62 C0 CD
(1761708975.787112) vcan0  60D   [8]  CC BF E1 0A 6C 84 27 75
(1761708975.788086) vcan0  520   [2]  1A 75
(1761708975.789519) vcan0  2F7   [8]  82 18 C7 1B 77 8D B8 60
(1761708975.790313) vcan0  0BB   [8]  5D 67 5D 05 DB 15 ED 3E
(1761708975.791216) vcan0  756   [7]  D2 77 C4 75 4D 22 38
(1761708975.791595) vcan0  7FB   [2]  A8 5F
(1761708975.792989) vcan0  406   [0]
(1761708975.793334) vcan0  167   [3]  9B 8B 19
(1761708975.794679) vcan0  7B7   [8]  9F 5F E8 00 A1 97 0E 7A
(1761708975.795392) vcan0  39E   [8]  98 86 BB 20 05 85 A8 1D
(1761708975.795932) vcan0  2DE   [3]  D5 E0 B1
(1761708975.796541) vcan0  69F   [8]  67 08 C3 1A E3 48 2F 1F
(1761708975.796741) vcan0  60D   [8]  0F 80 05 45 EB 08 66 40
(1761708975.797072) vcan0  4B8   [8]  4B C3 DD 14 57 33 80 0E
(1761708975.797559) vcan0  319   [8]  A1 C7 FE 25 1E 14 C4 0D
(1761708975.798100) vcan0  43F   [8]  1B C7 76 42 A1 7B 16 4B
(1761708975.799499) vcan0  214   [8]  70 AD F0 53 2D E5 91 65
(1761708975.800646) vcan0  2EF   [1]  13
(1761708975.801934) vcan0  6DF   [8]  28 3B 5B 01 85 15 BB 65
(1761708975.802104) vcan0  1DE   [6]  3D E5 76 3D 9E D7
(1761708975.803525) vcan0  034   [5]  AB C0 2F 58 13
(1761708975.803734) vcan0  0C0   [0]
(1761708975.804229) vcan0  1C2   [8]  A6 C0 03 3E F6 39 58 69
(1761708975.805587) vcan0  196   [8]  0C A4 2D 3A 56 4A E2 74
(1761708975.806313) vcan0  6EF   [8]  28 D9 9E 2F 43 78 4E 12
(1761708975.807155) vcan0  052   [8]  9B 8A 10 48 76 A5 8D 32
(1761708975.807216) vcan0  0C0   [8]  E4 44 86 22 66 77 94 63
(1761708975.807299) vcan0  2BD   [4]  47 FC 5D 1C
(1761708975.808578) vcan0  085   [8]  F0 2A 83 75 46 C9 D7 12
(1761708975.808780) vcan0  080   [8]  70 1B 0C 0C 5E 0C 8E 72
(1761708975.810231) vcan0  5E5   [8]  82 C2 1E 1A 55 BF 13 16
(1761708975.811323) vcan0  776   [8]  53 5F 82 2B C2 CF 11 22
(1761708975.811797) vcan0  363   [8]  FC 4E E2 1D 48 C9 E9 76
(1761708975.812373) vcan0  5AA   [8]  1B A8 16 1C 20 BD 88 52
(1761708975.813598) vcan0  4F8   [8]  F2 8F 86 2F CA 6F E6 13
(1761708975.814015) vcan0  188   [8]  62 5E 44 66 33 BF 46 7B
(1761708975.815480) vcan0  457   [0]
(1761708975.815511) vcan0  6BC   [8]  3F 2F 3A 7C 8A 3E F4 55
(1761708975.815695) vcan0  178   [8]  00 B3 DB 1E D0 05 30 65
(1761708975.817183) vcan0  37B   [8]  EE ED 1B 3E AE 46 2C 4B
(1761708975.817443) vcan0  79A   [8]  71 4F C5 22 12 19 E3 18
(1761708975.818498) vcan0  63D   [8]  CC 70 C3 67 E5 0E 83 2F
(1761708975.818657) vcan0  236   [5]  DA D8 0D 1A D0
(1761708975.819630) vcan0  7C8   [0]
(1761708975.819916) vcan0  76B   [6]  59 2A 7F 4D 70 44
(1761708975.820624) vcan0  4A7   [8]  83 81 1A 7E 65 F7 B5 08
(1761708975.821962) vcan0  095   [8]  18 81 B0 1E 7D 0A 89 2F
(1761708975.822892) vcan0  16D   [8]  71 E8 A4 5D 34 5A 4D 3A
(1761708975.823940) vcan0  450   [2]  DD 46
(1761708975.823972) vcan0  415   [8]  86 9E 9B 10 83 7D 98 33
(1761708975.825157) vcan0  257   [3]  61 46 84
(1761708975.825982) vcan0  2C0   [7]  63 68 65 6F 6E 61 6E
(1761708975.826157) vcan0  3DF   [8]  0A 8B 63 16 EE 67 E3 60
(1761708975.826442) vcan0  03F   [8]  D1 B6 D4 30 5F ED F4 12
(1761708975.827915) vcan0  61D   [0]
(1761708975.827945) vcan0  452   [7]  7F 74 E5 02 55 BF A1
(1761708975.828319) vcan0  10C   [8]  B1 A7 EB 59 DE 81 3D 53
(1761708975.829243) vcan0  558   [8]  71 D6 A6 06 0B 28 10 36
(1761708975.830551) vcan0  5ED   [6]  BB 02 26 28 46 61
(1761708975.831385) vcan0  76E   [6]  B6 7A 6D 5A 4D FB
(1761708975.832832) vcan0  7E2   [0]
(1761708975.833191) vcan0  6FA   [8]  81 3D 4C 33 17 05 30 38
(1761708975.834201) vcan0  19D   [8]  88 39 8F 1F EF 0D 08 01
(1761708975.834528) vcan0  1E0   [7]  44 CD A9 78 EC 2A 96
(1761708975.834992) vcan0  3BF   [6]  CA AC D3 19 17 E1
(1761708975.836046) vcan0  484   [8]  23 09 66 21 71 AA 26 05
(1761708975.836115) vcan0  481   [8]  B8 0B A7 3D F0 FB B0 6E
(1761708975.837270) vcan0  264   [8]  3D F7 DF 16 47 62 70 76
(1761708975.837691) vcan0  42F   [8]  69 B2 C7 16 29 DB DF 09
(1761708975.838748) vcan0  486   [8]  40 E0 0F 42 23 16 63 32
(1761708975.839102) vcan0  2C2   [8]  12 24 6B 33 A2 74 90 5B
(1761708975.840263) vcan0  7CF   [7]  8E 9F 26 22 8E FB A9
(1761708975.841033) vcan0  64D   [8]  A6 DC FF 2E D1 FA 89 34
(1761708975.842289) vcan0  794   [8]  42 A5 B0 39 16 EC 2E 19
(1761708975.842807) vcan0  1A7   [8]  06 E8 DF 07 0C DC 8C 63
(1761708975.842859) vcan0  769   [3]  53 3E FD
(1761708975.843942) vcan0  1BD   [8]  C1 9E 31 22 43 AE 8B 18
(1761708975.845138) vcan0  0A6   [1]  67
(1761708975.846091) vcan0  0C9   [8]  0B 50 46 0D 98 60 F4 49
(1761708975.847312) vcan0  1D0   [8]  26 5C 9E 0D 1D 40 19 29
(1761708975.848096) vcan0  3F2   [8]  EE 3A A3 5D 87 0B DC 47
(1761708975.848288) vcan0  695   [1]  9D
(1761708975.849311) vcan0  12B   [3]  49 EC 82
(1761708975.849863) vcan0  6E6   [8]  2C 8C 69 36 A3 F8 5C 46
(1761708975.850855) vcan0  358   [8]  E7 A6 E8 5E FE FB 1D 10
(1761708975.852323) vcan0  1EE   [8]  66 D7 D3 41 B7 42 BD 02
(1761708975.852700) vcan0  3C7   [1]  4F
(1761708975.854096) vcan0  70B   [6]  B5 6D B9 7B FD 52
(1761708975.855556) vcan0  042   [4]  84 5E CA 31
(1761708975.855788) vcan0  0D5   [1]  15
(1761708975.856000) vcan0  5C4   [8]  95 E2 73 1D AB F4 6A 03
(1761708975.856300) vcan0  5FA   [1]  4E
(1761708975.857387) vcan0  1AF   [5]  50 95 4E 1F 9D
(1761708975.858533) vcan0  783   [6]  55 86 12 6C 4B 53
(1761708975.858915) vcan0  428   [4]  E3 80 59 4D
(1761708975.859380) vcan0  11A   [8]  30 FE B1 18 5D 61 02 2A
(1761708975.860125) vcan0  73C   [5]  35 B8 F4 4D 11
(1761708975.861444) vcan0  2D6   [8]  12 3A 7C 12 9B E8 11 59
(1761708975.861904) vcan0  2A8   [7]  46 DD 7C 5C A2 F0 33
(1761708975.862790) vcan0  368   [4]  F4 89 64 37
(1761708975.863995) vcan0  6CA   [4]  B5 68 9B 19
(1761708975.864083) vcan0  3FA   [8]  98 B1 36 1C 22 20 12 68
(1761708975.864491) vcan0  0AE   [8]  55 CB D5 16 C9 41 86 51
(1761708975.864511) vcan0  114   [6]  26 A3 88 7B 50 B8
(1761708975.864714) vcan0  63B   [8]  62 D8 32 68 11 D9 55 57
(1761708975.865106) vcan0  2A5   [4]  AC C1 67 30
(1761708975.865534) vcan0  71B   [2]  EF DD
(1761708975.865760) vcan0  187   [3]  9B DF B2
(1761708975.866588) vcan0  727   [0]
(1761708975.867644) vcan0  75A   [7]  44 33 D6 26 08 50 6E
(1761708975.869060) vcan0  2B2   [8]  D1 91 F4 0D C6 2B 06 5C
(1761708975.870010) vcan0  01F   [7]  17 E4 18 31 5A EE 37
(1761708975.871343) vcan0  052   [8]  6C C7 8D 3E F7 0A 55 35
(1761708975.872401) vcan0  6ED   [8]  44 F8 F7 05 08 FE 99 3E
(1761708975.873571) vcan0  00B   [3]  8B B8 06
(1761708975.873605) vcan0  616   [6]  E3 59 22 31 3D C5
(1761708975.874145) vcan0  076   [1]  5F
(1761708975.875170) vcan0  0B8   [3]  D9 67 72
(1761708975.876221) vcan0  23C   [8]  31 8F FA 19 5C D2 72 46
(1761708975.877720) vcan0  6A2   [8]  B6 C0 AA 2D F4 BE DE 68
(1761708975.879174) vcan0  7C1   [2]  EC C9
(1761708975.879996) vcan0  13B   [0]
(1761708975.880306) vcan0  064   [2]  D8 CA
(1761708975.880377) vcan0  568   [8]  B8 9B FD 07 DF 2D BC 33
(1761708975.881485) vcan0  53C   [7]  AF 45 C0 75 F5 FD 7D
(1761708975.882072) vcan0  7BA   [8]  60 61 72 5E F6 89 8C 71
(1761708975.882668) vcan0  733   [1]  52
(1761708975.884038) vcan0  3DA   [8]  C9 94 5C 7F 9B 93 DF 27
(1761708975.884103) vcan0  52B   [5]  4A 92 39 20 66
(1761708975.884603) vcan0  0E6   [0]
(1761708975.884738) vcan0  442   [4]  C4 8F BB 36
(1761708975.884805) vcan0  73F   [8]  8A BF 98 1E 7C 84 3F 4D
(1761708975.885513) vcan0  793   [8]  71 82 BD 6D 4D 1F C1 53
(1761708975.886847) vcan0  2C2   [1]  44
(1761708975.888218) vcan0  462   [6]  CA 2F A3 1F 3C 38
(1761708975.888233) vcan0  29F   [3]  D8 CB FC
(1761708975.888579) vcan0  349   [2]  31 7E
(1761708975.889075) vcan0  522   [8]  79 FD 02 63 65 31 8C 22
(1761708975.889094) vcan0  062   [8]  10 C3 68 0D A2 07 7B 31
(1761708975.889244) vcan0  0BA   [8]  1E 8C BA 7E 4D 58 EB 13
(1761708975.889650) vcan0  7D3   [8]  9B 77 AC 67 95 3A E6 48
(1761708975.890901) vcan0  260   [8]  8A 94 0B 52 C2 C6 44 7D
(1761708975.891263) vcan0  675   [4]  FF FE 61 05
(1761708975.892552) vcan0  0E8   [7]  E0 10 18 42 31 AC 3E
(1761708975.893876) vcan0  0F9   [1]  60
(1761708975.895165) vcan0  4EF   [8]  80 47 85 4F 52 25 2E 7A
(1761708975.895915) vcan0  316   [0]
(1761708975.896735) vcan0  52A   [2]  1E 8C
(1761708975.897425) vcan0  7A1   [8]  93 4F 30 12 01 BA 83 4F
(1761708975.898362) vcan0  498   [8]  C3 80 C8 4C 0D 4B 9D 73
(1761708975.898635) vcan0  072   [2]  22 94
(1761708975.898812) vcan0  299   [2]  8B DD
(1761708975.899722) vcan0  414   [8]  AE 89 17 3A 03 31 FC 70
(1761708975.900497) vcan0  3C4   [8]  55 56 2A 6B DB 36 3D 76
(1761708975.901572) vcan0  3BF   [8]  AB 6A 01 17 E9 68 7A 6F
(1761708975.902318) vcan0  45B   [8]  E7 7D C4 38 FC 03 13 58
(1761708975.903490) vcan0  282   [8]  FD BD 96 27 1A 1F 63 31
(1761708975.904014) vcan0  199   [1]  28
(1761708975.904680) vcan0  683   [8]  66 8B B4 6B 1D 09 13 4E
(1761708975.904684) vcan0  34D   [1]  AF
(1761708975.905300) vcan0  6DD   [8]  64 08 C2 40 A1 F2 DF 4C
(1761708975.906072) vcan0  78C   [8]  7C 29 1D 43 4B B3 70 05
(1761708975.906897) vcan0  203   [8]  34 1C EB 74 5F 1E F7 03
(1761708975.907713) vcan0  2F1   [8]  5B 22 0A 5C 74 85 DC 0D
(1761708975.908189) vcan0  797   [8]  8E A4 3F 3F 30 19 D5 27
(1761708975.908216) vcan0  71A   [6]  3B 73 F0 2C 9D DD
(1761708975.909160) vcan0  501   [1]  BA
(1761708975.910423) vcan0  793   [8]  AF 87 B1 42 70 9E 20 57
(1761708975.911713) vcan0  1C7   [3]  11 91 00
(1761708975.912589) vcan0  6CD   [8]  9E F4 6D 21 D1 D0 1F 72
(1761708975.913148) vcan0  6B6   [3]  30 EF 16
(1761708975.913633) vcan0  2EF   [8]  1B 5F E8 74 86 12 AD 3C
(1761708975.915121) vcan0  1E4   [8]  B6 2B 82 64 FE 10 C2 4D
(1761708975.915695) vcan0  260   [1]  9C
(1761708975.916696) vcan0  593   [6]  AF CF 6F 15 26 05
(1761708975.917803) vcan0  7FF   [6]  7F 73 65 6F 75 6C
(1761708975.919235) vcan0  7E3   [8]  08 21 39 3D 0A 11 48 3B
(1761708975.919277) vcan0  00A   [7]  49 24 3B 2A 93 B5 F8
(1761708975.920619) vcan0  5C8   [8]  CD 5C 4E 5C FA 29 86 0E
(1761708975.920758) vcan0  25D   [8]  31 FD 13 55 C5 50 A7 1E
(1761708975.921818) vcan0  2AC   [8]  AF 4E 69 7F 92 EA B2 1D
(1761708975.922361) vcan0  51C   [8]  2F 3A B9 44 C8 BC AA 1F
(1761708975.922977) vcan0  405   [4]  5B 04 B4 27
(1761708975.924173) vcan0  28E   [5]  1E DD 1B 2A 72
(1761708975.925191) vcan0  504   [6]  7C E3 83 08 0E 65
(1761708975.925772) vcan0  14D   [5]  A1 1A 8A 4B 15
(1761708975.926907) vcan0  643   [8]  10 E9 52 61 A1 78 EB 0B
(1761708975.928072) vcan0  249   [1]  66
(1761708975.928866) vcan0  55A   [5]  87 1F 1D 14 76
(1761708975.929036) vcan0  622   [7]  3E B7 4E 2C 27 B2 56
(1761708975.929370) vcan0  1BB   [8]  AD 06 65 2D 4A 0C CC 3F
(1761708975.930238) vcan0  00E   [8]  BC DE 07 0D 12 C5 FB 0F
(1761708975.930878) vcan0  1F1   [8]  20 2A 8D 25 3F B3 6F 7B
(1761708975.931384) vcan0  1FD   [2]  54 72
(1761708975.931828) vcan0  430   [4]  E1 C8 AA 14
(1761708975.933019) vcan0  1A6   [7]  6F 53 D0 7D 00 37 DB
(1761708975.933116) vcan0  25C   [6]  77 31 7F 29 7E 58
(1761708975.933188) vcan0  4AD   [5]  A6 0A 88 19 69
(1761708975.933437) vcan0  44F   [3]  B3 EA EE
(1761708975.934309) vcan0  51E   [8]  70 99 B9 3C 0F D7 43 5D
(1761708975.935205) vcan0  3A7   [0]
(1761708975.935603) vcan0  052   [3]  E4 A5 8C
(1761708975.936350) vcan0  007   [6]  FC E2 B3 73 AD 99
(1761708975.936670) vcan0  10D   [8]  AE D0 50 59 6A AB AE 11
(1761708975.937824) vcan0  162   [5]  E8 03 E0 17 0F
(1761708975.939137) vcan0  2DA   [8]  78 54 58 0F 29 8F 6E 02
(1761708975.939388) vcan0  7E1   [8]  87 63 2C 2F FF 14 C3 16
(1761708975.940267) vcan0  09A   [7]  0F EC 06 74 41 94 C0
(1761708975.941442) vcan0  087   [8]  E5 E9 8D 2D DA C8 8A 21
(1761708975.942726) vcan0  300   [8]  5D 8D D8 0D 08 CB 29 4A
(1761708975.943816) vcan0  690   [8]  B5 64 9F 06 9D FF C6 13
(1761708975.945160) vcan0  6C5   [3]  07 AB 75
(1761708975.945910) vcan0  788   [0]
(1761708975.946858) vcan0  57E   [8]  8C B1 CC 3D 60 DD 12 67
(1761708975.947233) vcan0  1DA   [3]  5F F2 D5
(1761708975.948332) vcan0  20A   [8]  B6 F6 55 24 92 D2 0B 27
(1761708975.949085) vcan0  4CC   [8]  6C 9B 96 48 CC C7 41 32
(1761708975.950547) vcan0  066   [8]  D4 92 6B 7C F6 6E 50 3F
(1761708975.951422) vcan0  122   [8]  93 6E 17 53 E7 3F 0C 4B
(1761708975.952388) vcan0  4ED   [8]  0E 90 8E 41 76 64 BB 45
(1761708975.952989) vcan0  08B   [5]  D9 86 19 01 09
(1761708975.953177) vcan0  0F4   [5]  69 63 B3 0B CE
(1761708975.953392) vcan0  579   [8]  43 2D 43 41 83 5F BE 04
(1761708975.953622) vcan0  437   [8]  15 32 CA 2B 03 89 FD 39
(1761708975.954489) vcan0  496   [1]  D0
(1761708975.955199) vcan0  64A   [4]  F2 E3 CB 4A
(1761708975.956571) vcan0  32E   [5]  54 CF D7 6D 1C
(1761708975.957611) vcan0  420   [3]  92 6C 6C
(1761708975.957721) vcan0  5A8   [8]  B5 BA F3 70 9C 26 03 70
(1761708975.958608) vcan0  3D0   [8]  6A F1 B0 6E 49 79 4B 00
(1761708975.958758) vcan0  3E7   [8]  CD D8 09 05 1F A8 96 01
(1761708975.959948) vcan0  2A8   [2]  22 31
(1761708975.960034) vcan0  064   [2]  3A BC
(1761708975.960082) vcan0  597   [8]  1B 5E D0 12 C5 40 34 7C
(1761708975.961000) vcan0  2B1   [0]
(1761708975.961468) vcan0  4D3   [3]  7D 93 F8
(1761708975.961986) vcan0  0DE   [2]  17 69
(1761708975.962566) vcan0  451   [1]  F8
(1761708975.962662) vcan0  12F   [5]  57 88 5A 19 D7
(1761708975.963446) vcan0  1A8   [8]  15 03 FB 76 0C 0A A2 24
(1761708975.963595) vcan0  36C   [8]  BA D8 A6 14 03 A1 40 0D
(1761708975.964547) vcan0  77B   [6]  C9 E1 74 09 2D 52
(1761708975.964763) vcan0  446   [8]  FF B0 AC 0B 19 F1 2D 58
(1761708975.965716) vcan0  01E   [8]  94 33 E9 5D FC 88 83 28
(1761708975.967115) vcan0  2AF   [8]  AB 5D C7 71 00 FF 24 56
(1761708975.968577) vcan0  72C   [4]  38 DF E8 6D
(1761708975.969234) vcan0  269   [0]
(1761708975.969961) vcan0  10A   [8]  1D 0E FF 2D 76 5C F4 58
(1761708975.971178) vcan0  698   [8]  7A FD 34 66 14 4E B9 2F
(1761708975.972487) vcan0  5AE   [3]  41 A0 C0
(1761708975.972986) vcan0  1ED   [0]
(1761708975.974420) vcan0  5BC   [1]  08
(1761708975.974654) vcan0  34C   [3]  6B 27 C9
(1761708975.975630) vcan0  457   [4]  D4 AA 8C 20
(1761708975.976900) vcan0  634   [8]  D2 52 9E 60 3E 8F 27 0B
(1761708975.977280) vcan0  651   [0]
(1761708975.977425) vcan0  7C8   [8]  FD 42 FE 70 76 65 60 3B
(1761708975.978487) vcan0  071   [8]  6A E7 9C 4D 5F D2 FE 7D
(1761708975.979358) vcan0  47E   [7]  6A BC AE 75 3B CA 3E
(1761708975.980603) vcan0  118   [2]  A6 F2
(1761708975.981061) vcan0  026   [2]  DC 7E
(1761708975.981657) vcan0  0B6   [1]  3E
(1761708975.982491) vcan0  0B9   [1]  28
(1761708975.983322) vcan0  701   [8]  F3 FB 8F 6D C9 C6 EE 0C
(1761708975.983478) vcan0  30B   [1]  3F
(1761708975.984247) vcan0  22F   [8]  DB 8D E1 48 AE 56 79 77
(1761708975.984582) vcan0  620   [6]  E9 20 B8 5A 38 6F
(1761708975.984869) vcan0  1B8   [8]  9C B3 A4 6A DE 79 4F 7C
(1761708975.986328) vcan0  5A1   [8]  5C F6 7D 71 57 4E A5 4A
(1761708975.986707) vcan0  429   [8]  41 DD F8 21 E2 5C EF 13
(1761708975.987458) vcan0  7AB   [8]  EC 63 3A 40 AC 5E A7 26
(1761708975.987461) vcan0  546   [0]
(1761708975.987720) vcan0  6D1   [4]  CD B3 D5 26
(1761708975.988366) vcan0  55D   [8]  AE 17 1F 37 7D D3 C4 5F
(1761708975.989512) vcan0  3EF   [7]  B5 42 13 2E A7 05 BA
(1761708975.990039) vcan0  427   [1]  86
(1761708975.990448) vcan0  0CA   [2]  20 C8
(1761708975.991595) vcan0  77C   [1]  D6
(1761708975.991945) vcan0  0CB   [2]  D4 75
(1761708975.992551) vcan0  5A2   [8]  62 9E C9 6D 73 44 14 6E
(1761708975.993351) vcan0  4FE   [8]  74 05 BA 2D 5C 52 65 01
(1761708975.993562) vcan0  3D8   [2]  D9 25
(1761708975.993874) vcan0  5BA   [8]  6F 25 58 35 E1 A1 22 2A
(1761708975.993909) vcan0  6E0   [5]  A9 1B DC 7F AA
(1761708975.993966) vcan0  2D7   [8]  9E 0C 82 7B 53 52 5E 53
(1761708975.995294) vcan0  12B   [4]  7B 69 CF 6C
(1761708975.995643) vcan0  436   [0]
(1761708975.996450) vcan0  29A   [8]  4C 1E FA 72 98 67 2A 10
(1761708975.997817) vcan0  098   [0]
(1761708975.998568) vcan0  0E3   [8]  38 74 92 74 9D 96 3D 7C
(1761708975.999110) vcan0  05D   [7]  7E 38 60 26 3D A7 EC
(1761708975.999567) vcan0  69C   [7]  E8 2E A7 45 73 59 35
(1761708976.000403) vcan0  7F1   [6]  C7 AB 93 56 1C C1
(1761708976.001384) vcan0  1FA   [2]  12 EB
(1761708976.002308) vcan0  492   [8]  09 38 72 58 2C 6F E1 10
(1761708976.003603) vcan0  182   [6]  C5 D6 0B 21 1A EA
(1761708976.004482) vcan0  216   [8]  8B 3E 2D 36 F9 BA AD 71
(1761708976.005327) vcan0  087   [4]  96 51 EB 6D
(1761708976.006324) vcan0  46B   [4]  22 60 39 51
(1761708976.006988) vcan0  63C   [8]  7B E4 2B 36 2D 16 FF 00
(1761708976.008213) vcan0  290   [2]  49 D7
(1761708976.008268) vcan0  585   [8]  BA 52 F8 5B 17 9A 6D 40
(1761708976.009104) vcan0  574   [4]  44 09 4F 51
(1761708976.010130) vcan0  11A   [8]  10 91 E1 34 30 5B F7 6B
(1761708976.010169) vcan0  0C2   [8]  2A 16 A5 5D 4A E1 4B 4A
(1761708976.010932) vcan0  260   [0]
(1761708976.011838) vcan0  1D5   [0]
(1761708976.013304) vcan0  15A   [8]  3E E6 62 1B EA 53 BC 31
(1761708976.014327) vcan0  691   [7]  74 48 28 3A 16 74 7D
(1761708976.014783) vcan0  7E2   [8]  2E 0E EB 70 56 FD E9 4B
(1761708976.015637) vcan0  5F3   [2]  4C A4
(1761708976.016865) vcan0  77B   [8]  3D 62 59 36 3D 68 8B 59
(1761708976.018174) vcan0  4F8   [7]  87 49 D7 23 58 87 51
(1761708976.019604) vcan0  028   [6]  24 56 CA 2C FD D1
(1761708976.020221) vcan0  606   [7]  0E A2 CE 59 61 67 F4
(1761708976.020642) vcan0  646   [8]  4B BB B0 63 D8 BC 2F 7E
(1761708976.020767) vcan0  5D3   [0]
(1761708976.021772) vcan0  6EF   [8]  0B C3 63 48 E2 C4 84 7E
(1761708976.022599) vcan0  68E   [7]  EF CB E6 48 09 4E 67
(1761708976.023050) vcan0  4B3   [8]  47 B6 F2 6F AC A1 ED 42
(1761708976.024063) vcan0  694   [8]  04 29 3F 05 BC 86 CD 72
(1761708976.024517) vcan0  384   [8]  B9 58 38 32 8B C1 7B 01
(1761708976.025398) vcan0  720   [7]  EC 28 70 33 66 1D 18
(1761708976.025884) vcan0  313   [7]  3E DA 47 18 E6 C8 D5
(1761708976.026153) vcan0  7F7   [8]  9B 8E 4F 38 E6 86 F3 68
(1761708976.026308) vcan0  249   [6]  C8 4B 78 67 D8 A0
(1761708976.027675) vcan0  0FD   [7]  E1 EE C6 5E B0 55 14
(1761708976.028152) vcan0  5E4   [8]  5C F7 01 2F 78 EC DD 42
(1761708976.028767) vcan0  4F7   [1]  34
(1761708976.029537) vcan0  789   [8]  06 4A 39 0D A9 CE 8D 62
(1761708976.029865) vcan0  6B4   [2]  10 EC
(1761708976.029871) vcan0  72A   [8]  AD 12 F9 30 21 3F C4 0C
(1761708976.030501) vcan0  17B   [8]  08 C6 B7 75 C5 1B 70 42
(1761708976.031516) vcan0  2EE   [0]
(1761708976.032767) vcan0  188   [8]  9B 01 BA 2B 6C 6F 2E 3D
(1761708976.032908) vcan0  0A7   [8]  E4 5B 0C 00 9E F5 D3 1A
(1761708976.033644) vcan0  159   [8]  19 7E 91 26 E2 B8 47 75
(1761708976.034739) vcan0  305   [0]
(1761708976.035160) vcan0  312   [8]  80 AB A9 06 3C 92 3E 4C
(1761708976.035307) vcan0  1EA   [8]  5E D1 02 59 66 0B 4C 45
(1761708976.035400) vcan0  775   [6]  2B 27 BC 07 63 52
(1761708976.035682) vcan0  136   [8]  4E FE 8C 4A BE D2 79 39
(1761708976.036031) vcan0  746   [8]  2A 42 A8 76 ED DF 72 34
(1761708976.037229) vcan0  0E1   [8]  8B D5 46 4F 3A 12 00 60
(1761708976.037315) vcan0  526   [5]  1D CB 47 55 2B
(1761708976.037577) vcan0  3C5   [8]  E4 69 8E 5B D7 56 17 1E
(1761708976.038490) vcan0  645   [4]  14 E9 55 6A
(1761708976.039667) vcan0  391   [2]  95 0B
(1761708976.040718) vcan0  1D8   [0]
(1761708976.042095) vcan0  688   [7]  CD CD 77 77 CF A5 B8
(1761708976.042992) vcan0  3A1   [7]  BC 85 2B 7B 82 7C 84
(1761708976.044448) vcan0  606   [8]  BD 8E 84 37 2C 1B 41 11
(1761708976.045609) vcan0  6ED   [8]  58 23 49 5B B2 CA ED 69
(1761708976.046182) vcan0  483   [8]  89 21 05 08 C8 72 82 3B
(1761708976.046223) vcan0  2A1   [8]  F7 72 84 26 32 76 EA 32
(1761708976.047336) vcan0  50F   [8]  39 A9 B0 6D E7 16 C7 47
(1761708976.047488) vcan0  14D   [2]  F6 11
(1761708976.048611) vcan0  25A   [3]  A5 6D 2B
(1761708976.048843) vcan0  7BA   [1]  7D
(1761708976.050053) vcan0  6A9   [8]  ED B8 72 61 96 FD 13 26
(1761708976.050162) vcan0  314   [5]  48 C8 01 10 97
(1761708976.051009) vcan0  181   [2]  5F BA
(1761708976.052451) vcan0  46F   [7]  55 82 8D 3F 7F B9 15
(1761708976.052872) vcan0  3E4   [8]  66 D0 DC 07 31 5D 8F 67
(1761708976.054326) vcan0  230   [8]  07 25 02 41 8A 0C 35 24
(1761708976.055091) vcan0  21F   [8]  85 42 4F 6E DA B1 3B 76
(1761708976.055681) vcan0  60E   [3]  9A 4F 6D
(1761708976.056308) vcan0  63D   [7]  4E D2 61 08 52 D1 00
(1761708976.057761) vcan0  4CC   [6]  E9 18 DA 6E 4E 4E
(1761708976.059243) vcan0  468   [8]  70 5A D2 64 D8 78 CC 3A
(1761708976.059662) vcan0  0A0   [5]  57 32 E2 7A 84
(1761708976.059801) vcan0  053   [8]  B5 09 58 0C 84 62 3A 32
(1761708976.060455) vcan0  51A   [8]  0E 6F 6F 56 39 A7 3F 1B
(1761708976.061521) vcan0  169   [4]  13 59 7B 11
(1761708976.062973) vcan0  697   [8]  2F 1C 5A 0D D4 DC BD 3D
(1761708976.064033) vcan0  135   [8]  26 AE BE 0C 02 96 64 64
(1761708976.065176) vcan0  113   [0]
(1761708976.065612) vcan0  259   [0]
(1761708976.067042) vcan0  386   [8]  7D 47 AD 36 D9 23 64 17
(1761708976.068482) vcan0  368   [2]  5D 86
(1761708976.068547) vcan0  7EF   [8]  BC 47 98 42 59 41 E7 3E
(1761708976.068583) vcan0  700   [8]  D0 88 F3 69 97 4D 79 39
(1761708976.069118) vcan0  17D   [8]  6B 2A 37 77 B3 FA C4 2B
(1761708976.069396) vcan0  37C   [2]  B5 90
(1761708976.069426) vcan0  7A2   [5]  0C 2A B3 19 FB
(1761708976.070418) vcan0  3C5   [0]
(1761708976.071739) vcan0  10B   [1]  25
(1761708976.072273) vcan0  5A3   [2]  F6 C4
(1761708976.073421) vcan0  6EE   [2]  EC 2E
(1761708976.074212) vcan0  581   [8]  85 63 40 53 FF F6 3A 48
(1761708976.074672) vcan0  4BC   [1]  B2
(1761708976.075653) vcan0  683   [7]  C8 0C AF 49 25 06 FC
(1761708976.075815) vcan0  76C   [4]  20 40 59 13
(1761708976.076322) vcan0  734   [4]  7D 7A F4 72
(1761708976.076797) vcan0  185   [2]  B3 74
(1761708976.077538) vcan0  724   [8]  BB 8C D2 2A 13 56 29 08
(1761708976.077843) vcan0  65B   [7]  01 6C F0 21 DC F3 E4
(1761708976.078892) vcan0  364   [7]  DB EA 1F 6E 20 D0 B8
(1761708976.079347) vcan0  578   [8]  58 C0 3E 65 FB C3 15 0E
(1761708976.079842) vcan0  2C0   [4]  61 73 61 6E
(1761708976.080867) vcan0  6BA   [8]  94 EC 18 5E E8 F0 C4 51
(1761708976.081176) vcan0  5C0   [8]  E4 31 A0 57 FD 76 7B 15
(1761708976.082178) vcan0  266   [1]  0E
(1761708976.083090) vcan0  02D   [8]  2B BA 5A 7B 92 FB 9E 2C
(1761708976.084001) vcan0  4F5   [8]  AA 22 FF 46 4B E0 5F 3B
(1761708976.084585) vcan0  55D   [8]  AC DD 68 21 74 DF E4 72
(1761708976.085098) vcan0  755   [8]  83 5C E5 44 0F 2E E6 0F
(1761708976.085926) vcan0  37B   [8]  F7 1E AB 61 3B E1 93 1E
(1761708976.086654) vcan0  494   [8]  38 58 0F 34 FA 5E BC 60
(1761708976.087833) vcan0  67D   [6]  CF 76 84 54 AB 3E
(1761708976.088835) vcan0  584   [8]  3D 3A C2 63 79 82 E2 59
(1761708976.089657) vcan0  4D9   [8]  C4 62 42 15 36 AA 28 21
(1761708976.090933) vcan0  067   [0]
(1761708976.092019) vcan0  0C9   [1]  B5
(1761708976.093154) vcan0  05E   [8]  2E BE CF 3C D9 AB 5A 17
(1761708976.094336) vcan0  150   [5]  14 8D EE 35 E4
(1761708976.095502) vcan0  601   [8]  DF 5C 34 78 7F 7C EB 38
(1761708976.096394) vcan0  492   [8]  2A BB 0E 70 16 3A 0D 77
(1761708976.097405) vcan0  4A8   [7]  8F BC EF 50 81 C1 34
(1761708976.098230) vcan0  24F   [3]  B7 6B 5D
(1761708976.098747) vcan0  7C4   [1]  DE
(1761708976.099564) vcan0  2A2   [3]  AB 60 5A
(1761708976.100207) vcan0  1CC   [8]  D9 C6 AA 62 1C 3B 3A 2A
(1761708976.100305) vcan0  3FF   [8]  01 39 B2 41 00 2A 6B 47
(1761708976.100880) vcan0  139   [0]
(1761708976.101639) vcan0  18E   [8]  E1 8F A1 7B 36 6E 37 23
(1761708976.102892) vcan0  711   [0]
(1761708976.103791) vcan0  3C3   [8]  17 F4 95 47 87 CB A0 4F
(1761708976.104794) vcan0  0CF   [6]  14 9C 11 37 71 EB
(1761708976.104981) vcan0  389   [0]
(1761708976.105667) vcan0  399   [8]  72 40 E4 1C 98 17 3B 0C
(1761708976.106846) vcan0  137   [3]  99 41 A6
(1761708976.108301) vcan0  753   [8]  3B B0 5A 09 E1 78 1C 1F
(1761708976.109431) vcan0  1C2   [8]  17 E7 53 42 D3 A0 98 08
(1761708976.110906) vcan0  48C   [8]  33 4A 61 4B 4F F8 50 04
(1761708976.111387) vcan0  23C   [8]  D7 C3 F1 53 0B 43 BE 74
(1761708976.112635) vcan0  041   [8]  7C 2E 59 30 CA 33 F0 2C
(1761708976.113829) vcan0  4AB   [8]  20 39 9A 1F 45 78 05 73
(1761708976.113832) vcan0  237   [2]  DD 8F
(1761708976.115111) vcan0  305   [6]  DE 7D CF 27 58 02
(1761708976.115851) vcan0  18F   [8]  39 7B AE 52 51 03 46 6B
(1761708976.117139) vcan0  635   [0]
(1761708976.118611) vcan0  11E   [7]  10 F3 04 0C 5A 2B 4C
(1761708976.119849) vcan0  4A2   [7]  65 6E 0A 7A E3 1C 23
(1761708976.121285) vcan0  6D3   [1]  AE
(1761708976.122364) vcan0  1CE   [8]  C3 EB 6E 34 05 D4 81 02
(1761708976.122575) vcan0  360   [1]  73
(1761708976.123236) vcan0  517   [1]  BD
(1761708976.123515) vcan0  36A   [6]  F7 09 C0 18 9F 11
(1761708976.124441) vcan0  646   [8]  60 0C 5F 3C 64 4F 46 13
(1761708976.124479) vcan0  473   [0]
(1761708976.124862) vcan0  658   [3]  F9 E5 38
(1761708976.125036) vcan0  604   [7]  A9 40 BE 54 D2 57 A8
(1761708976.125679) vcan0  075   [8]  D7 2B 2A 21 D5 C3 25 25
(1761708976.125978) vcan0  00E   [8]  3A BA 66 6A 25 F5 72 43
(1761708976.126013) vcan0  09B   [7]  CC FB EC 70 05 3C 94
(1761708976.126874) vcan0  6ED   [3]  A4 4D 3F
(1761708976.127719) vcan0  3DF   [4]  97 4C 85 22
(1761708976.128222) vcan0  174   [5]  67 19 40 00 CC
(1761708976.129193) vcan0  078   [0]
(1761708976.130054) vcan0  607   [1]  4E
(1761708976.131266) vcan0  20E   [5]  51 BA E4 6C 1C
(1761708976.132368) vcan0  56F   [8]  41 E7 EC 65 0A 76 4C 25
(1761708976.132477) vcan0  782   [8]  0F B2 E0 37 6F 4E 40 69
(1761708976.133047) vcan0  0D1   [3]  A2 4B 7F
(1761708976.133573) vcan0  1B7   [8]  02 ED FC 58 2B B3 C0 4E
(1761708976.134296) vcan0  78E   [8]  F8 C2 1D 43 06 10 D1 23
(1761708976.135618) vcan0  5CA   [8]  82 46 86 2E D1 3B 7B 65
(1761708976.136072) vcan0  590   [0]
(1761708976.137394) vcan0  6F5   [8]  BA F9 56 2F 64 6C A8 33
(1761708976.137814) vcan0  12B   [8]  6E E2 F4 58 AD 88 EF 2B
(1761708976.139178) vcan0  409   [8]  1D D7 2F 15 DA AC A4 4C
(1761708976.139421) vcan0  430   [8]  8A 49 77 43 E7 ED B3 12
(1761708976.139866) vcan0  2F9   [8]  13 A1 74 61 87 1A D0 7E
(1761708976.140879) vcan0  4F6   [8]  8E 2A A1 22 C0 42 67 0E
(1761708976.141469) vcan0  3FA   [0]
(1761708976.142198) vcan0  5E1   [8]  29 C9 7E 23 D6 D4 76 4B
(1761708976.143371) vcan0  57F   [4]  3B 41 1F 7F
(1761708976.144149) vcan0  3E0   [8]  57 87 95 58 E9 67 37 54
(1761708976.145387) vcan0  027   [4]  C4 14 DC 20
(1761708976.145733) vcan0  134   [8]  3F 3A 93 0B 2D 3C 28 24
(1761708976.146469) vcan0  4DB   [2]  B4 56
(1761708976.147720) vcan0  75D   [2]  91 14
(1761708976.148813) vcan0  253   [2]  E2 04
(1761708976.149201) vcan0  402   [8]  0A 0D 43 0B 81 E1 1A 55
(1761708976.150529) vcan0  0F0   [5]  2B E0 C0 01 D0
(1761708976.150774) vcan0  1EF   [2]  B9 9C
(1761708976.152119) vcan0  5F7   [8]  6D 76 3F 44 2B 47 90 43
(1761708976.153204) vcan0  7CC   [8]  58 83 B8 67 A7 A4 3A 50
(1761708976.154645) vcan0  3FE   [8]  78 76 B3 46 5B CB 74 4E
(1761708976.155471) vcan0  34F   [8]  B3 0E 71 4F A2 4D 0B 67
(1761708976.155809) vcan0  62B   [5]  D6 85 D7 26 2D
(1761708976.157299) vcan0  1A1   [0]
(1761708976.158183) vcan0  126   [8]  61 A7 2A 26 15 53 F3 1E
(1761708976.158745) vcan0  35C   [8]  2B 7D 53 6A 53 51 83 57
(1761708976.159505) vcan0  598   [8]  7E 98 13 1B 64 05 01 2B
(1761708976.159977) vcan0  445   [6]  0B AA 3B 7B 43 30
(1761708976.160518) vcan0  5E2   [3]  9F FB B4
(1761708976.161159) vcan0  38C   [2]  D3 9E
(1761708976.162231) vcan0  5E7   [8]  E5 2B 0E 30 89 FF 60 62
(1761708976.162568) vcan0  78A   [4]  1A 72 7F 12
(1761708976.163360) vcan0  36D   [8]  C5 EB 34 79 C9 1E D7 27
(1761708976.164107) vcan0  597   [0]
(1761708976.165444) vcan0  488   [8]  94 58 A7 2F CD 00 81 10
(1761708976.165812) vcan0  470   [8]  11 31 C1 4B 53 1A B7 2A
(1761708976.165847) vcan0  323   [0]
(1761708976.166962) vcan0  702   [8]  67 98 2D 4C E9 54 D1 6E
(1761708976.168000) vcan0  701   [8]  72 54 32 51 8B E6 BF 56
(1761708976.169148) vcan0  3E1   [8]  3B 7F 01 31 4E C7 09 78
(1761708976.169623) vcan0  009   [0]
(1761708976.170381) vcan0  3F0   [4]  CF 90 1A 4A
(1761708976.170854) vcan0  6CF   [3]  46 31 5B
(1761708976.171184) vcan0  403   [7]  92 9D 9A 01 26 0F 77
(1761708976.172516) vcan0  707   [7]  D5 DD CB 0B 09 C6 2E
(1761708976.173963) vcan0  36F   [8]  F3 1A 00 6F 70 42 65 10
(1761708976.174977) vcan0  28A   [5]  FC 28 25 67 6B
(1761708976.175910) vcan0  5F2   [7]  B9 35 D9 2B FB 15 40
(1761708976.176044) vcan0  338   [1]  9B
(1761708976.177434) vcan0  206   [8]  A1 17 F6 6F D5 D0 9E 24
(1761708976.177458) vcan0  5CE   [8]  14 54 82 7B D1 B9 35 6E
(1761708976.178693) vcan0  33F   [7]  F7 C8 AC 7F 47 3A 00
(1761708976.179794) vcan0  2BE   [8]  50 00 2F 6E 2D 0E A0 5E
(1761708976.180101) vcan0  50A   [3]  9D 50 05
(1761708976.181264) vcan0  2A9   [8]  FF C5 76 6B 9B C0 45 41
(1761708976.181551) vcan0  1D1   [8]  97 D6 85 01 09 35 AE 30
(1761708976.181688) vcan0  78A   [2]  31 1C
(1761708976.182056) vcan0  69D   [3]  65 5A 9E
(1761708976.182642) vcan0  4BB   [8]  3D 96 CF 0E FA 27 7F 2D
(1761708976.182887) vcan0  020   [5]  41 62 7F 1B DE
(1761708976.184301) vcan0  602   [2]  0B A9
(1761708976.185323) vcan0  5D5   [8]  A0 7A 0E 35 7E 08 3F 04
(1761708976.186525) vcan0  342   [8]  1A C9 84 45 13 95 94 04
(1761708976.187860) vcan0  457   [1]  1C
(1761708976.188526) vcan0  1E3   [8]  71 DD DE 68 81 D8 4D 25
(1761708976.190008) vcan0  221   [6]  ED B4 E7 45 DC 96
(1761708976.190754) vcan0  650   [8]  D6 BE 5D 65 70 86 DB 34
(1761708976.190836) vcan0  25F   [8]  4F 21 4F 27 61 B0 28 7D
(1761708976.191099) vcan0  3AA   [8]  6D D3 8F 7A 7F 01 69 71
(1761708976.192573) vcan0  403   [8]  FE 09 A8 75 46 37 BF 4E
(1761708976.193101) vcan0  6AC   [8]  59 CC 53 53 04 CB F8 07
(1761708976.193590) vcan0  2C9   [6]  E5 1E D8 22 AC 3C
(1761708976.193988) vcan0  4C4   [7]  2D 15 CA 75 E5 96 70
(1761708976.194296) vcan0  42D   [8]  C1 2D 4F 1D 7D 1A D2 30
(1761708976.195361) vcan0  545   [7]  EE A0 AD 65 A4 BF 9C
(1761708976.195383) vcan0  5AF   [8]  06 70 C5 70 59 91 15 0E
(1761708976.195546) vcan0  497   [3]  D9 92 7E
(1761708976.195926) vcan0  181   [7]  E1 87 9A 0C 2D 20 17
(1761708976.195968) vcan0  7EF   [8]  31 EB 0F 73 B8 E2 8A 32
(1761708976.196391) vcan0  2B0   [7]  64 1F 07 03 74 67 28
(1761708976.197376) vcan0  2C0   [6]  7F 6F 73 61 6E 20
(1761708976.197395) vcan0  3CB   [6]  F6 88 A2 64 8E D0
(1761708976.197592) vcan0  10D   [6]  16 FD E3 48 B9 DC
(1761708976.198493) vcan0  187   [8]  8D CC 6B 6C 8B 5D 76 4B
(1761708976.199888) vcan0  2FA   [3]  75 E0 F3
(1761708976.200466) vcan0  281   [8]  5A 6A 61 1C C1 58 3A 6C
(1761708976.201642) vcan0  3B8   [0]
(1761708976.202835) vcan0  4D8   [3]  D4 F8 B8
(1761708976.202991) vcan0  4A9   [0]
(1761708976.204456) vcan0  5C6   [6]  02 E9 6D 36 D4 EE
(1761708976.205763) vcan0  42C   [8]  8D CB 9A 59 B3 55 A1 1A
(1761708976.206904) vcan0  1D6   [8]  3E B3 17 66 D0 9C 93 3A
(1761708976.208197) vcan0  4AD   [4]  68 F0 D3 7C
(1761708976.208252) vcan0  33C   [2]  EF DF
(1761708976.208414) vcan0  283   [8]  4D D8 C7 30 5B 3F 63 54
(1761708976.209320) vcan0  000   [1]  11
(1761708976.210819) vcan0  701   [1]  1D
(1761708976.211551) vcan0  1C7   [0]
(1761708976.212299) vcan0  439   [8]  A7 1B F5 54 0F 96 6E 53
(1761708976.212462) vcan0  743   [6]  DF 32 02 0E F0 1B
(1761708976.212640) vcan0  29A   [7]  1E A3 DB 1D D6 65 F4
(1761708976.213077) vcan0  60A   [8]  CB 2C 8D 47 8D D8 28 16
(1761708976.213554) vcan0  4CB   [8]  E8 17 8C 6A CB 5C A3 3C
(1761708976.213682) vcan0  639   [8]  75 B1 AD 30 3B 3D DE 5C
(1761708976.215083) vcan0  6EA   [2]  03 F2
(1761708976.216185) vcan0  4B2   [8]  A5 2E F4 33 EB B0 5C 43
(1761708976.216568) vcan0  4C8   [8]  FA 46 CB 16 0B 0C 1D 70
(1761708976.217300) vcan0  133   [8]  FB 27 A2 7F CD 7B 0E 0F
(1761708976.218678) vcan0  521   [8]  A3 E1 02 5F 2B 1B AF 53
(1761708976.219570) vcan0  627   [8]  B8 F3 D7 69 F2 4A 98 44
(1761708976.221065) vcan0  387   [0]
(1761708976.222153) vcan0  299   [3]  FC 26 99
(1761708976.223538) vcan0  7C5   [8]  35 8A 49 5A 78 EC 33 70
(1761708976.224377) vcan0  69E   [8]  63 9D 90 33 66 B3 10 06
(1761708976.225471) vcan0  327   [8]  71 BF 2D 76 5A 1C 1D 5B
(1761708976.226840) vcan0  638   [8]  27 98 2B 6A 59 FB CC 1E
(1761708976.226969) vcan0  285   [8]  85 16 7C 72 AD 00 38 49
(1761708976.227741) vcan0  03A   [8]  9F 4B D0 0D C1 9B A3 0E
(1761708976.228101) vcan0  5DE   [8]  82 85 5E 61 77 60 D6 6E
(1761708976.228581) vcan0  490   [8]  FB 81 7F 4F 56 C4 0C 5B
(1761708976.229251) vcan0  57D   [0]
(1761708976.229897) vcan0  50A   [1]  81
(1761708976.229936) vcan0  28F   [2]  8C E4
(1761708976.230584) vcan0  65E   [4]  21 8C 23 57
(1761708976.231236) vcan0  67F   [6]  91 81 03 19 B9 7E
(1761708976.232680) vcan0  4E3   [0]
(1761708976.232703) vcan0  08E   [8]  39 23 82 45 1E 0D D5 76
(1761708976.233657) vcan0  47B   [4]  74 D1 E1 51
(1761708976.234525) vcan0  164   [2]  14 86
(1761708976.235599) vcan0  074   [6]  A0 3E FF 45 03 03
(1761708976.237019) vcan0  488   [8]  CB 93 77 1D E7 62 07 70
(1761708976.237402) vcan0  7E1   [8]  CB E3 D2 3F 60 96 65 62
(1761708976.237639) vcan0  292   [8]  19 15 C9 2F 75 6F 2E 64
(1761708976.238330) vcan0  28C   [3]  37 32 DA
(1761708976.239728) vcan0  790   [0]
(1761708976.239782) vcan0  2A4   [8]  05 2E 7F 69 08 AC 28 54
(1761708976.240332) vcan0  3F0   [8]  76 22 FA 4A 64 24 57 37
(1761708976.240510) vcan0  1AF   [7]  67 27 78 1C 38 F6 3F
(1761708976.240793) vcan0  444   [2]  1F 59
(1761708976.241907) vcan0  31E   [8]  85 BA 69 68 B0 9D C5 6C
(1761708976.242258) vcan0  246   [8]  26 0D F4 50 D2 D4 9A 2E
(1761708976.242413) vcan0  731   [8]  ED C7 24 64 C2 CE 38 6D
(1761708976.242550) vcan0  4CD   [6]  CE EA CB 04 71 8F
(1761708976.243187) vcan0  1D3   [3]  79 3B B1
(1761708976.243661) vcan0  4EC   [8]  27 12 7F 61 9C 2E DC 66
(1761708976.243789) vcan0  706   [8]  D4 24 1C 0D 4A 43 E8 52
(1761708976.244488) vcan0  4C1   [3]  6F 67 EC
(1761708976.245933) vcan0  2DD   [4]  90 6D 37 53
(1761708976.246674) vcan0  192   [6]  F5 31 09 57 C4 F0
(1761708976.247143) vcan0  213   [2]  86 BF
(1761708976.247535) vcan0  208   [4]  51 DE AC 5D
(1761708976.248969) vcan0  327   [8]  9F 49 9E 04 13 90 01 52
(1761708976.249296) vcan0  7BA   [7]  AF BE DD 38 C0 36 AE
(1761708976.250143) vcan0  556   [3]  0B 7A 96
(1761708976.250149) vcan0  176   [8]  F7 59 6D 02 53 1C DB 62
(1761708976.250872) vcan0  36F   [8]  76 79 49 0B 01 F5 61 2C
(1761708976.252325) vcan0  23E   [8]  C5 E5 ED 29 52 FC C9 29
(1761708976.252952) vcan0  54E   [8]  32 4B EE 65 57 67 32 69
(1761708976.252959) vcan0  79F   [4]  33 C3 A8 43
(1761708976.254334) vcan0  34E   [2]  DA A2
(1761708976.255355) vcan0  099   [8]  C9 F1 B0 10 EF FD 78 12
(1761708976.255658) vcan0  50D   [4]  07 88 74 2E
(1761708976.255784) vcan0  54E   [8]  D7 C2 30 7F BD 50 A3 2D
(1761708976.257097) vcan0  186   [8]  BF 45 05 5A C5 EB 56 00
(1761708976.257601) vcan0  7B9   [4]  17 E8 20 2A
(1761708976.257760) vcan0  0D0   [8]  5F F4 7F 73 6F 20 E9 1C
(1761708976.258086) vcan0  4CD   [2]  36 33
(1761708976.259380) vcan0  464   [0]
(1761708976.259527) vcan0  799   [8]  ED 2A 4D 40 A6 7C 1F 53
(1761708976.260273) vcan0  0C1   [4]  2A 23 75 6F
(1761708976.260426) vcan0  4F3   [1]  CD
(1761708976.260745) vcan0  24E   [8]  3E 2A 81 26 08 0A ED 65
(1761708976.261738) vcan0  011   [5]  10 97 3A 70 E1
(1761708976.262963) vcan0  59F   [8]  50 B9 93 0B 6C A2 5B 34
(1761708976.263568) vcan0  301   [6]  88 42 FF 1E 65 07
(1761708976.264012) vcan0  296   [8]  63 34 27 48 30 FA EB 5D
(1761708976.265496) vcan0  29A   [1]  D6
(1761708976.265960) vcan0  245   [0]
(1761708976.265990) vcan0  001   [8]  B2 E5 03 3D 50 A2 46 08
(1761708976.267481) vcan0  4C6   [0]
(1761708976.267667) vcan0  246   [8]  B8 FD D1 23 E5 67 D8 14
(1761708976.268988) vcan0  6D7   [8]  51 0A 34 49 D8 11 0C 5D
(1761708976.269855) vcan0  38F   [8]  3D 19 5F 77 25 66 C6 77
(1761708976.270705) vcan0  287   [1]  55
(1761708976.271019) vcan0  4F2   [8]  7D 78 71 42 37 BF 30 3F
(1761708976.272180) vcan0  12C   [8]  70 66 0A 56 2E F1 64 36
(1761708976.273067) vcan0  223   [2]  7E 93
(1761708976.274179) vcan0  412   [6]  C0 23 D1 78 58 7E
(1761708976.275396) vcan0  33E   [8]  3D E6 92 3F 15 52 76 4D
(1761708976.275637) vcan0  080   [8]  ED 63 82 2A 0F 7C 0A 06
(1761708976.276651) vcan0  569   [8]  35 E2 D0 7D F0 27 D3 0D
(1761708976.277103) vcan0  2CB   [8]  11 FD A8 05 BD 77 62 29
(1761708976.278409) vcan0  2C0   [6]  6F 6E 79 61 6E 67
(1761708976.278658) vcan0  4F2   [8]  91 62 A0 37 96 D5 7B 55
(1761708976.279680) vcan0  058   [1]  28
(1761708976.280166) vcan0  677   [2]  4A 08
(1761708976.280825) vcan0  6FB   [8]  63 88 25 65 B2 B1 3F 29
(1761708976.282195) vcan0  583   [0]
(1761708976.283522) vcan0  7FC   [8]  00 A5 D5 2A BD 5C B9 1A
(1761708976.284917) vcan0  626   [0]
(1761708976.285079) vcan0  146   [8]  14 2D BD 33 38 6E D4 12
(1761708976.285960) vcan0  027   [5]  CE 43 50 68 7F
(1761708976.286439) vcan0  357   [6]  50 9B FD 09 CE B1
(1761708976.287887) vcan0  759   [8]  A0 3B 23 1F 54 4E 58 4B
(1761708976.289267) vcan0  267   [4]  06 00 98 74
(1761708976.289544) vcan0  584   [4]  73 09 16 68
(1761708976.290611) vcan0  751   [3]  3E 6A 1D
(1761708976.291095) vcan0  3E3   [8]  FB 62 40 7B 29 75 40 36
(1761708976.292370) vcan0  2CA   [0]
(1761708976.293103) vcan0  7B5   [0]
(1761708976.294432) vcan0  226   [1]  DB
(1761708976.295636) vcan0  25B   [8]  D4 CF 2D 63 C3 B4 67 0F
(1761708976.296962) vcan0  47F   [8]  AE 94 77 74 04 C2 96 61
(1761708976.297526) vcan0  22E   [1]  84
(1761708976.298538) vcan0  495   [2]  F7 F6
(1761708976.299552) vcan0  101   [2]  A2 75
(1761708976.300283) vcan0  202   [3]  BE 7E 46
(1761708976.301265) vcan0  033   [8]  C4 2C C5 55 5A F2 AF 75
(1761708976.302727) vcan0  0F1   [8]  D9 73 85 0D 4C 0B 5C 28
(1761708976.303318) vcan0  21B   [8]  0F C0 C3 37 9A E6 89 42
(1761708976.304315) vcan0  388   [8]  9E A8 20 24 B6 A5 79 1F
(1761708976.304388) vcan0  2DF   [3]  36 8F 6F
(1761708976.304633) vcan0  1E5   [8]  EC 3F CB 1F E7 92 54 58
(1761708976.305980) vcan0  01F   [8]  B3 AE 41 57 22 CA 63 31
(1761708976.306612) vcan0  692   [1]  DA
(1761708976.307234) vcan0  7A0   [8]  1F 81 66 72 91 78 63 66
(1761708976.307600) vcan0  23E   [8]  DE 83 BF 0E 59 14 77 08
(1761708976.308881) vcan0  0A6   [8]  F3 FA 00 4B 2E 4C 18 39
(1761708976.309694) vcan0  0AB   [2]  E5 F1
(1761708976.310541) vcan0  3B5   [8]  FE CA C9 73 9A CD 70 28
(1761708976.311338) vcan0  748   [8]  81 60 C5 00 67 E7 96 48
(1761708976.311686) vcan0  079   [4]  89 B1 FA 79
(1761708976.311930) vcan0  4A5   [3]  D0 5D 53
(1761708976.312479) vcan0  602   [0]
(1761708976.312522) vcan0  3E9   [5]  99 9C 3F 4B 8F
(1761708976.312886) vcan0  4A3   [8]  BE 58 5D 4E 4E FD 32 5D
(1761708976.313020) vcan0  31E   [3]  D8 88 BA
(1761708976.313370) vcan0  3BE   [6]  6E 24 10 6F 06 D3
(1761708976.313385) vcan0  6C0   [8]  6D BA CA 05 39 1F 43 71
(1761708976.314281) vcan0  424   [7]  44 EE DF 26 C9 D0 6B
(1761708976.314842) vcan0  15A   [5]  0F F5 39 79 5C
(1761708976.315588) vcan0  305   [7]  9C FF B4 45 EE FE 92
(1761708976.316286) vcan0  29C   [5]  7D 0B D8 37 3F
(1761708976.317221) vcan0  3C2   [8]  8D 14 04 7A E0 6E 97 2C
(1761708976.318149) vcan0  6DE   [5]  B4 C5 36 73 9C
(1761708976.318851) vcan0  13B   [2]  A2 4D
(1761708976.319064) vcan0  711   [0]
(1761708976.320245) vcan0  407   [8]  FF D3 64 64 61 65 68 5B
(1761708976.320471) vcan0  18F   [8]  BE DC 54 5E 94 D4 9F 6E
(1761708976.320680) vcan0  2F5   [8]  82 D3 32 11 92 0D 67 1E
(1761708976.322159) vcan0  090   [8]  D1 24 38 3B 52 AC 33 5C
(1761708976.322340) vcan0  33B   [8]  32 1B CB 08 19 F2 64 7C
(1761708976.323347) vcan0  6C4   [6]  B6 6C 7A 5D 00 C8
(1761708976.323394) vcan0  308   [8]  FC 17 9A 26 1A 3A 65 30
(1761708976.323862) vcan0  268   [1]  4F
(1761708976.324114) vcan0  4AB   [8]  D1 9B 19 1F 3A 8E 6B 1F
(1761708976.324186) vcan0  25D   [8]  CE 62 0B 0E 52 35 6C 78
(1761708976.325474) vcan0  4E9   [0]
(1761708976.326585) vcan0  550   [6]  CB 79 AA 32 8B 58
(1761708976.326623) vcan0  115   [8]  A4 4A EE 33 D9 77 42 0F
(1761708976.327765) vcan0  5E4   [8]  D9 3F 80 36 ED 40 C0 15
(1761708976.327911) vcan0  1B3   [5]  07 7B 25 46 1B
(1761708976.329071) vcan0  707   [6]  8B 6A B5 70 B2 C3
(1761708976.329763) vcan0  1A5   [8]  ED 51 78 42 02 A4 A8 4B
(1761708976.330651) vcan0  6EB   [8]  54 D9 14 44 D4 D3 B5 2E
(1761708976.331830) vcan0  30C   [8]  4E A1 2C 05 5C 00 0B 58
(1761708976.332902) vcan0  3EF   [8]  E7 58 94 0F 04 25 3B 34
(1761708976.333310) vcan0  017   [8]  DD 9C 7D 43 FC 25 C4 2A
(1761708976.334179) vcan0  2E6   [7]  E9 66 84 40 99 CC 17
(1761708976.334408) vcan0  48C   [0]
(1761708976.335505) vcan0  246   [8]  46 D7 78 6E EB 63 74 56
(1761708976.335795) vcan0  19B   [3]  ED 07 1D
(1761708976.335836) vcan0  5EE   [2]  5B C4
(1761708976.336145) vcan0  57B   [8]  56 C9 41 49 6A 81 0D 6E
(1761708976.337146) vcan0  0C2   [8]  6E A6 48 22 DA 30 E4 7B
(1761708976.337716) vcan0  5C9   [8]  D6 56 A8 26 AF 20 44 71
(1761708976.338161) vcan0  002   [8]  48 ED 5B 53 8F 54 DC 36
(1761708976.339510) vcan0  7AF   [8]  22 68 48 02 F5 39 04 05
(1761708976.339945) vcan0  13C   [8]  E1 9D 78 5B D7 CA E9 71
(1761708976.341336) vcan0  09B   [8]  5E BB C7 0E 8A 46 27 23
(1761708976.342155) vcan0  710   [8]  84 0F 5E 14 8B 84 E1 24
(1761708976.343611) vcan0  562   [8]  F5 05 EF 12 24 66 B3 33
(1761708976.344320) vcan0  318   [3]  FE 96 97
(1761708976.345006) vcan0  7AF   [4]  90 E1 12 44
(1761708976.346166) vcan0  393   [8]  40 64 9E 31 42 4B 43 2B
(1761708976.347503) vcan0  4D5   [3]  38 85 47
(1761708976.348220) vcan0  3CB   [8]  E8 E0 19 4E 67 74 5A 46
(1761708976.348696) vcan0  0E7   [6]  F1 BA 81 69 F8 4F
(1761708976.349857) vcan0  3FF   [5]  83 D4 FE 11 61
(1761708976.350221) vcan0  350   [8]  86 67 0C 16 69 9E F5 11
(1761708976.351014) vcan0  6DC   [4]  4A 5F C4 64
(1761708976.352186) vcan0  459   [8]  3D 86 E5 6F EC 97 50 59
(1761708976.352890) vcan0  7B3   [8]  2F E3 93 04 88 CC 2C 3A
(1761708976.354048) vcan0  6E0   [7]  99 E2 5C 16 AC C2 12
(1761708976.354934) vcan0  380   [2]  13 37
(1761708976.355631) vcan0  7C8   [4]  5F A4 0E 37
(1761708976.356801) vcan0  479   [3]  29 7D EE
(1761708976.357382) vcan0  35C   [8]  33 FE 43 15 38 DA 20 48
(1761708976.357773) vcan0  334   [8]  C4 50 44 3D 8D CF 82 52
(1761708976.358603) vcan0  658   [1]  79
(1761708976.360102) vcan0  17E   [8]  94 7A 52 1D 5F 78 18 24
(1761708976.360605) vcan0  30F   [8]  0B 3B 2B 1E 8F 3E DE 25
(1761708976.361006) vcan0  0B0   [8]  F7 92 CF 6F 78 80 7E 59
(1761708976.361821) vcan0  422   [6]  40 FC 13 52 9B 20
(1761708976.362591) vcan0  039   [8]  65 80 A4 33 95 03 E7 5D
(1761708976.364023) vcan0  619   [8]  CE DD 07 26 4D 41 9C 54
(1761708976.364922) vcan0  416   [2]  DA 10
(1761708976.366292) vcan0  593   [4]  7A 28 F6 48
(1761708976.366564) vcan0  2FC   [8]  70 3F 3C 03 0C 76 9C 68
(1761708976.367597) vcan0  03D   [8]  9B B4 7A 0E ED 20 1E 32
(1761708976.368089) vcan0  499   [2]  65 A1
(1761708976.368367) vcan0  6E9   [6]  57 71 DD 38 22 2F
(1761708976.368769) vcan0  710   [8]  B8 32 FB 72 29 75 B0 28
(1761708976.369693) vcan0  055   [6]  77 B6 4C 7D 6B 4C
(1761708976.369855) vcan0  718   [1]  D9
(1761708976.370221) vcan0  7A5   [4]  BC 0B E9 6B
(1761708976.370291) vcan0  263   [8]  AE 78 54 63 A0 92 62 27
(1761708976.371413) vcan0  5A8   [8]  8D B3 80 59 42 B2 8C 10
(1761708976.371485) vcan0  4DC   [2]  FD 02
(1761708976.371601) vcan0  298   [4]  E7 22 56 2A
(1761708976.372682) vcan0  611   [8]  D2 7E 31 76 66 D6 DD 73
(1761708976.373432) vcan0  625   [8]  D1 22 39 6C 3D A5 A3 32
(1761708976.373931) vcan0  49A   [8]  E8 E9 68 3F 40 3C 48 0F
(1761708976.375163) vcan0  0FE   [5]  E2 3E 00 0A 61
(1761708976.375904) vcan0  0D2   [0]
(1761708976.377122) vcan0  4D9   [8]  BC B8 90 3B B5 59 3D 4F
(1761708976.377154) vcan0  681   [8]  7A 4D 7F 64 19 F9 BF 27
(1761708976.377510) vcan0  00E   [2]  C2 02
(1761708976.377866) vcan0  601   [4]  85 6C E7 58
(1761708976.378070) vcan0  6DD   [6]  64 D1 1E 15 77 B3
(1761708976.378658) vcan0  7FF   [8]  7F 67 61 6E 67 6E 61 6D
(1761708976.379632) vcan0  486   [8]  BA 56 01 4F 0D C3 C3 5E
(1761708976.379793) vcan0  792   [8]  15 23 4C 41 89 36 5F 4B
(1761708976.381010) vcan0  494   [8]  1F 82 53 03 02 E8 48 34
(1761708976.382199) vcan0  14A   [3]  52 CB FB
(1761708976.382766) vcan0  1D5   [0]
(1761708976.384202) vcan0  278   [7]  C9 4E C6 50 7B 64 9A
(1761708976.385662) vcan0  705   [8]  81 24 FE 78 F1 DB 8C 66
(1761708976.386368) vcan0  335   [8]  71 AF D8 18 BC 27 79 61
(1761708976.386683) vcan0  74C   [8]  C9 EA 3C 40 DE 7E 1F 6D
(1761708976.387800) vcan0  126   [8]  67 B5 7E 38 BB CD 6B 7C
(1761708976.387940) vcan0  7E7   [6]  BD B5 B4 30 32 A1
(1761708976.389051) vcan0  0FA   [8]  F8 D6 EE 14 CF 1A 60 61
(1761708976.389361) vcan0  40F   [8]  20 BF 93 24 88 9E 8F 02
(1761708976.389613) vcan0  511   [8]  03 03 2A 07 16 EC 9E 37
(1761708976.390262) vcan0  155   [4]  07 C8 2B 1E
(1761708976.391243) vcan0  081   [8]  46 14 B2 2F CD 37 8D 5D
(1761708976.392628) vcan0  5A3   [0]
(1761708976.393630) vcan0  4EF   [2]  85 DC
(1761708976.395053) vcan0  399   [2]  08 46
(1761708976.396062) vcan0  352   [0]
(1761708976.396985) vcan0  58A   [2]  E9 45
(1761708976.397822) vcan0  46C   [8]  B1 16 90 0D C1 75 FA 2C
(1761708976.397943) vcan0  071   [8]  4B 62 33 7B F3 10 EA 26
(1761708976.398365) vcan0  631   [2]  C0 48
(1761708976.399838) vcan0  5A2   [8]  9F E2 DA 59 91 82 4C 0C
(1761708976.400647) vcan0  37E   [4]  67 27 28 38
(1761708976.401977) vcan0  166   [0]
(1761708976.402100) vcan0  270   [8]  1A 0C 7F 02 FA 07 10 6B
(1761708976.402218) vcan0  18F   [3]  95 32 01
(1761708976.403100) vcan0  2F0   [7]  BC B3 4F 68 62 0B 62
(1761708976.403504) vcan0  000   [7]  55 1C 4C 32 31 7E 0D
(1761708976.404938) vcan0  499   [5]  06 52 AC 5E 3B
(1761708976.405327) vcan0  481   [5]  CC 84 89 35 00
(1761708976.406462) vcan0  3C9   [4]  17 DF 83 69
(1761708976.407007) vcan0  1A4   [2]  E8 A9
(1761708976.407946) vcan0  5CE   [2]  0F AC
(1761708976.408733) vcan0  006   [4]  58 D5 8D 0C
(1761708976.410158) vcan0  7EB   [4]  58 AE 45 36
(1761708976.411216) vcan0  71C   [8]  1D CE 68 0A B5 2B C9 66
(1761708976.411280) vcan0  7C3   [3]  F1 2D 06
(1761708976.411786) vcan0  4C9   [8]  44 64 73 7D 92 48 A6 08
(1761708976.412802) vcan0  6F1   [8]  C2 8D 8F 23 95 78 99 45
(1761708976.413420) vcan0  61E   [8]  AA 1C 05 7E EC 9B AC 16
(1761708976.414068) vcan0  5AD   [8]  4A 33 E5 67 B3 F5 AF 0E
(1761708976.415516) vcan0  75D   [2]  AA 98
(1761708976.415762) vcan0  1B7   [2]  34 1F
(1761708976.416138) vcan0  1B0   [1]  88
(1761708976.417502) vcan0  575   [8]  B7 D5 FC 1C 3E 62 81 7B
(1761708976.418520) vcan0  537   [8]  D0 AA 27 04 28 9C 51 31
(1761708976.418816) vcan0  558   [3]  BE 14 EB
(1761708976.419260) vcan0  03E   [8]  62 DF B5 4B EB 5D D6 56
(1761708976.419370) vcan0  221   [8]  9F 53 86 65 7E A1 6E 1C
(1761708976.420486) vcan0  34F   [8]  C7 70 7A 55 06 AD 5E 11
(1761708976.421267) vcan0  34B   [8]  D9 DD 0F 53 FB 44 5E 67
(1761708976.422212) vcan0  54D   [1]  6E
(1761708976.422257) vcan0  4DB   [6]  00 ED 17 02 12 02
(1761708976.422311) vcan0  622   [1]  3A
(1761708976.423593) vcan0  064   [8]  F0 56 FC 4C A2 40 13 1B
(1761708976.424028) vcan0  460   [2]  8D 9E
(1761708976.424556) vcan0  0FF   [8]  00 80 27 02 4E 64 5B 74
(1761708976.424996) vcan0  675   [7]  54 11 BA 05 C1 11 7D
(1761708976.426155) vcan0  0C3   [8]  BC 56 DB 6C 11 FE 34 40
(1761708976.426351) vcan0  18E   [8]  D3 88 CB 46 69 EE 5E 08
(1761708976.426587) vcan0  151   [4]  7B F0 79 3A
(1761708976.427538) vcan0  5A5   [6]  ED E2 93 76 09 DE
(1761708976.428311) vcan0  1AE   [8]  AB 1E 2D 18 0F 26 86 47
(1761708976.428957) vcan0  02F   [8]  90 04 3F 2D 2E B9 8F 28
(1761708976.430195) vcan0  765   [0]
(1761708976.431311) vcan0  558   [0]
(1761708976.431827) vcan0  5FD   [8]  2C F4 C0 5A 8C 47 C3 4F
(1761708976.432543) vcan0  383   [0]
(1761708976.432859) vcan0  2D4   [1]  47
(1761708976.432911) vcan0  527   [4]  82 DE AC 36
(1761708976.434371) vcan0  111   [8]  E4 1C 47 70 40 69 7F 53
(1761708976.434873) vcan0  265   [5]  6F 22 0F 7C CA
(1761708976.435138) vcan0  605   [8]  A5 F7 87 12 5D 1B F5 53
(1761708976.436062) vcan0  6BC   [0]
(1761708976.437153) vcan0  598   [5]  45 D4 D1 06 1B
(1761708976.437800) vcan0  2A5   [8]  EF 6D 59 2F 79 75 3E 55
(1761708976.437951) vcan0  0AC   [6]  F2 75 D1 0E D3 E5
(1761708976.438008) vcan0  16A   [4]  A8 DC D3 4A
(1761708976.439419) vcan0  1A1   [8]  BC 6B DB 6A 07 0C 49 6D
(1761708976.440840) vcan0  302   [8]  D1 75 C0 27 07 C1 8D 25
(1761708976.441798) vcan0  616   [6]  65 DC 82 79 D2 3C
(1761708976.442248) vcan0  4B7   [8]  8C C9 92 72 4F 92 DC 64
(1761708976.443557) vcan0  383   [1]  6B
(1761708976.444875) vcan0  00C   [8]  A2 EB 52 71 B8 D8 E8 49
(1761708976.445685) vcan0  391   [5]  8B BE FB 6B FB
(1761708976.446509) vcan0  609   [4]  77 B7 04 09
(1761708976.446582) vcan0  4C1   [3]  B2 13 44
(1761708976.447765) vcan0  15E   [3]  CA 70 19
(1761708976.447942) vcan0  6FA   [8]  47 BC 33 16 B1 FB AA 53
(1761708976.449408) vcan0  30D   [3]  00 8E 87
(1761708976.450497) vcan0  3A4   [8]  BA A4 FA 1E B1 CB 83 5A
(1761708976.451555) vcan0  2C6   [8]  69 A4 6C 24 57 8E E6 24
(1761708976.452440) vcan0  1F1   [5]  52 43 8F 16 FB
(1761708976.453171) vcan0  629   [8]  A6 AF 0F 30 EA 92 22 39
(1761708976.454668) vcan0  5FC   [8]  AD 42 AE 03 5A CF 3E 6E
(1761708976.455976) vcan0  4DB   [7]  CF 4E EE 48 D5 43 A5
(1761708976.456635) vcan0  0A7   [6]  86 3F 50 63 B4 3B
(1761708976.458131) vcan0  0E9   [7]  45 6A EA 31 8D B4 13
(1761708976.458865) vcan0  6F2   [8]  3E 80 97 44 B8 31 7A 5D
(1761708976.459031) vcan0  75C   [8]  0F C0 60 02 4D 91 A4 71
(1761708976.459352) vcan0  79D   [2]  48 39
(1761708976.460332) vcan0  62B   [8]  B0 18 C7 79 28 1C F8 4B
(1761708976.460582) vcan0  446   [8]  82 EB 36 3A 22 F9 74 55
(1761708976.460777) vcan0  6D4   [1]  F7
(1761708976.461305) vcan0  567   [8]  30 4B A5 7D 50 D6 2F 4A
(1761708976.461835) vcan0  205   [5]  DE 8A 43 34 F7
(1761708976.462503) vcan0  475   [8]  B0 CA D9 4B D1 63 A7 61
(1761708976.463458) vcan0  7C4   [8]  1E F5 4B 53 61 B7 4B 5B
(1761708976.463670) vcan0  621   [7]  27 3D F0 1B 4D 8C AE
(1761708976.464087) vcan0  755   [7]  75 A8 A6 6B 9C C3 EA
(1761708976.464530) vcan0  134   [7]  BE BC 5F 57 09 C0 69
(1761708976.465596) vcan0  649   [5]  84 CF 0A 53 B0
(1761708976.467027) vcan0  633   [4]  01 EA 79 55
(1761708976.468027) vcan0  02A   [8]  30 59 86 57 9F 94 B4 00
(1761708976.469234) vcan0  7FB   [0]
(1761708976.469702) vcan0  69F   [8]  21 67 C3 3F C1 3C C5 58
(1761708976.470223) vcan0  3F5   [8]  0E C9 73 78 4B 33 7B 63
(1761708976.471072) vcan0  220   [3]  E7 F6 65
(1761708976.472555) vcan0  57A   [5]  5E 6B 01 09 C3
(1761708976.473698) vcan0  55A   [2]  74 E7
(1761708976.474293) vcan0  597   [5]  C6 E3 4A 67 C1
(1761708976.475627) vcan0  654   [6]  60 BA B0 2D 4F C6
(1761708976.475701) vcan0  0D6   [0]
(1761708976.476295) vcan0  05E   [1]  37
(1761708976.476814) vcan0  17A   [5]  9F EF DC 79 9A
(1761708976.478112) vcan0  6C8   [6]  EF 26 06 16 42 8C
(1761708976.478667) vcan0  22B   [8]  06 60 12 46 85 47 48 15
(1761708976.478860) vcan0  7FF   [6]  7F 73 75 77 6F 6E
(1761708976.480271) vcan0  496   [1]  65
(1761708976.480383) vcan0  30D   [0]
(1761708976.480793) vcan0  242   [8]  4F 37 1C 72 63 F5 59 4C
(1761708976.482095) vcan0  72F   [5]  08 67 04 2A AE
(1761708976.483335) vcan0  482   [6]  51 6C 0D 78 60 09
(1761708976.484012) vcan0  43A   [7]  32 CD 76 72 00 8C 26
(1761708976.484750) vcan0  22B   [5]  56 D8 91 6F F3
(1761708976.485635) vcan0  102   [3]  F7 05 25
(1761708976.486022) vcan0  184   [8]  47 96 2E 6F 91 9C C9 5C
(1761708976.487205) vcan0  69D   [1]  45
(1761708976.488054) vcan0  5FD   [5]  43 DE F8 03 2C
(1761708976.488558) vcan0  0BA   [8]  DB 2A E2 24 3C 5D 77 10
(1761708976.489290) vcan0  7C1   [8]  9D 66 6C 0A FB 23 29 66
(1761708976.489385) vcan0  1D3   [8]  FC AF 4F 77 FF 3B 98 0F
(1761708976.489846) vcan0  694   [2]  F2 31
(1761708976.490529) vcan0  2E5   [8]  2E 95 E6 7C 69 2C 35 7A
(1761708976.491163) vcan0  146   [5]  FB C8 FE 56 E4
(1761708976.492522) vcan0  706   [0]
(1761708976.493965) vcan0  2D5   [7]  30 5A 4A 22 90 EB B9
(1761708976.494345) vcan0  452   [8]  CC 48 31 0D 14 9C 0A 24
(1761708976.495013) vcan0  437   [8]  0F C0 33 0A 0A D6 38 45
(1761708976.496415) vcan0  339   [8]  09 12 D1 54 CD C9 8D 26
(1761708976.497277) vcan0  05D   [8]  64 F1 A3 15 42 6B 71 63
(1761708976.497685) vcan0  3E5   [2]  AC 97
(1761708976.498863) vcan0  208   [7]  0F 3D E6 34 0E 29 6F
(1761708976.499033) vcan0  2E7   [3]  12 EE E0
(1761708976.499113) vcan0  4DA   [2]  4D 79
(1761708976.499534) vcan0  54D   [8]  41 6D FD 42 84 E9 73 18
(1761708976.500111) vcan0  183   [0]
(1761708976.500652) vcan0  55C   [8]  89 1E B5 36 B9 95 19 37
(1761708976.501933) vcan0  593   [8]  FC 00 8B 1A 78 91 9B 61
(1761708976.503129) vcan0  680   [8]  A4 86 C1 3C 88 48 83 5D
(1761708976.503503) vcan0  14F   [3]  96 71 F2
(1761708976.504195) vcan0  187   [8]  F3 D1 62 14 61 AE 8A 13
(1761708976.504408) vcan0  7EA   [0]
(1761708976.505468) vcan0  55A   [8]  BB 5E CA 75 DD 7E E9 4A
(1761708976.506184) vcan0  220   [8]  99 D3 10 5B 7C B7 60 11
(1761708976.506948) vcan0  7E2   [2]  35 4D
(1761708976.508434) vcan0  210   [1]  EE
(1761708976.509417) vcan0  6D9   [2]  18 E1
(1761708976.509610) vcan0  145   [8]  5F 24 53 42 CC 12 A8 2A
(1761708976.510356) vcan0  257   [2]  2E C1
(1761708976.510826) vcan0  193   [8]  79 CF A0 4D ED 4E 33 11
(1761708976.511694) vcan0  58C   [4]  CA CD 1C 5C
(1761708976.512483) vcan0  47E   [3]  28 FF 37
(1761708976.513591) vcan0  385   [8]  D6 41 8D 7F 95 95 12 27
(1761708976.513841) vcan0  28F   [4]  25 2E 15 64
(1761708976.514915) vcan0  656   [8]  91 61 FC 48 9B D7 AC 37
(1761708976.515646) vcan0  1EC   [0]
(1761708976.516090) vcan0  442   [6]  84 6E A9 41 D5 BD
(1761708976.516298) vcan0  452   [8]  C2 0C 29 35 DE 19 63 77
(1761708976.517254) vcan0  432   [8]  8A 61 3A 20 B0 B8 97 69
(1761708976.517460) vcan0  3EF   [2]  11 F5
(1761708976.518560) vcan0  510   [7]  0A A5 79 38 9F 47 DC
(1761708976.519791) vcan0  7AB   [0]
(1761708976.521229) vcan0  26D   [8]  9C DD 79 46 59 44 3D 25
(1761708976.521583) vcan0  088   [4]  9C 58 9C 76
(1761708976.521786) vcan0  39A   [1]  A0
(1761708976.522556) vcan0  51E   [3]  CB 79 F1
(1761708976.522664) vcan0  1EF   [6]  01 2A DD 03 DF 4D
(1761708976.522761) vcan0  408   [2]  54 5D
(1761708976.523170) vcan0  5F9   [8]  B7 30 9F 6C A4 65 23 5A
(1761708976.524205) vcan0  58E   [8]  A5 6B F0 68 FC B7 8D 6E
(1761708976.525701) vcan0  457   [1]  55
(1761708976.526476) vcan0  146   [2]  AB 01
(1761708976.526940) vcan0  413   [8]  CD E4 1D 7C 31 21 3D 0A
(1761708976.528363) vcan0  3AE   [8]  82 92 82 24 9E B5 31 65
(1761708976.528731) vcan0  1EF   [3]  7D 03 26
(1761708976.528754) vcan0  395   [1]  10
(1761708976.529497) vcan0  32F   [7]  32 97 17 1D BE 38 BA
(1761708976.530580) vcan0  186   [7]  BA F0 47 49 DE AD D6
(1761708976.531355) vcan0  418   [8]  BE 82 1E 66 5E 5D AB 0D
(1761708976.532625) vcan0  201   [8]  3F E2 3A 2F 14 5E 27 2A
(1761708976.533122) vcan0  0B4   [8]  46 7F 64 34 63 54 A9 23
(1761708976.534544) vcan0  5A5   [8]  01 0A DB 08 94 5F A3 39
(1761708976.535453) vcan0  64B   [8]  8C D5 7C 46 E0 A9 F2 33
(1761708976.536206) vcan0  64F   [8]  6E DB E6 76 7E D1 D8 32
(1761708976.536323) vcan0  463   [0]
(1761708976.536881) vcan0  577   [6]  C8 FB D0 04 8F C1
(1761708976.537301) vcan0  006   [6]  EE 1E 24 5D 07 2A
(1761708976.538483) vcan0  2EF   [8]  1C 88 8F 45 A3 73 6A 03
(1761708976.539966) vcan0  039   [2]  06 C8
(1761708976.541060) vcan0  12A   [7]  73 4D C3 6A 75 E7 21
(1761708976.542090) vcan0  785   [8]  55 91 14 08 D4 4D 72 36
(1761708976.543229) vcan0  79B   [3]  53 1F 4B
(1761708976.544291) vcan0  763   [8]  E9 69 A8 02 DA 54 00 2D
(1761708976.544988) vcan0  486   [1]  69
(1761708976.546229) vcan0  437   [7]  93 36 0F 1D 26 E7 DA
(1761708976.547441) vcan0  684   [8]  C9 5A 45 16 BE FE B3 1D
(1761708976.548757) vcan0  611   [0]
(1761708976.549211) vcan0  4D7   [0]
(1761708976.549479) vcan0  510   [5]  31 22 AA 2E AB
(1761708976.549752) vcan0  4C8   [4]  AA D0 DE 67
(1761708976.551109) vcan0  314   [3]  05 F9 99
(1761708976.552070) vcan0  044   [8]  26 9C 33 5E 7B 84 69 64
(1761708976.553404) vcan0  4C6   [8]  A1 6B 44 77 4B 7B AC 06
(1761708976.554347) vcan0  169   [8]  09 7A 60 24 7A 57 74 3A
(1761708976.555594) vcan0  13B   [6]  B6 36 E2 69 12 DE
(1761708976.557004) vcan0  0B6   [6]  6F B2 62 30 C6 FD
(1761708976.557938) vcan0  56C   [1]  72
(1761708976.558043) vcan0  625   [8]  60 BE 4F 21 39 81 D5 05
(1761708976.558316) vcan0  5B0   [5]  D3 10 62 62 F4
(1761708976.559682) vcan0  6D4   [8]  70 E2 A3 59 9B 0B AD 53
(1761708976.560983) vcan0  7B3   [1]  E6
(1761708976.561124) vcan0  47C   [8]  96 68 2E 54 B7 FD 54 29
(1761708976.561992) vcan0  795   [8]  CA DB 7F 61 4B 08 BA 1E
(1761708976.562163) vcan0  4B3   [8]  12 06 5D 36 1F F2 98 24
(1761708976.563200) vcan0  2DA   [4]  53 0C 4F 28
(1761708976.564482) vcan0  3A0   [3]  39 FA C6
(1761708976.564843) vcan0  219   [8]  45 57 57 78 ED 48 85 68
